<Qucs Dataset 24.3.1>
<indep FREQ 11>
-2.500000000000e+11
-2.000000000000e+11
-1.500000000000e+11
-1.000000000000e+11
-5.000000000000e+10
0.000000000000e+00
5.000000000000e+10
1.000000000000e+11
1.500000000000e+11
2.000000000000e+11
2.500000000000e+11
</indep>
<indep Y 10>
1.00000000e-04
1.20000000e-03
2.30000000e-03
3.40000000e-03
4.50000000e-03
5.60000000e-03
6.70000000e-03
7.80000000e-03
8.90000000e-03
1.00000000e-02
</indep>
<dep Re(V(COLLECTOR_VOLTAGE)) FREQ Y>
-2.096344170000e-11+j0.000000000000e+00
7.652684650000e-10+j0.000000000000e+00
-2.667652050000e-08+j0.000000000000e+00
-5.766008310000e-08+j0.000000000000e+00
-7.117548330000e-03+j0.000000000000e+00
1.650000000000e+00+j0.000000000000e+00
-7.117548330000e-03+j0.000000000000e+00
-5.766008310000e-08+j0.000000000000e+00
-2.667652050000e-08+j0.000000000000e+00
7.652684650000e-10+j0.000000000000e+00
-2.096344170000e-11+j0.000000000000e+00
-4.265027680000e-06+j0.000000000000e+00
1.513014040000e-05+j0.000000000000e+00
-4.711473870000e-05+j0.000000000000e+00
-2.284215230000e-05+j0.000000000000e+00
-8.579279300000e-02+j0.000000000000e+00
1.650000000000e+00+j0.000000000000e+00
-8.579279300000e-02+j0.000000000000e+00
-2.284215230000e-05+j0.000000000000e+00
-4.711473870000e-05+j0.000000000000e+00
1.513014040000e-05+j0.000000000000e+00
-4.265027680000e-06+j0.000000000000e+00
-9.146521850000e-05+j0.000000000000e+00
2.024023770000e-04+j0.000000000000e+00
-3.431828370000e-04+j0.000000000000e+00
-2.252588110000e-04+j0.000000000000e+00
-1.639117970000e-01+j0.000000000000e+00
1.650000000000e+00+j0.000000000000e+00
-1.639117970000e-01+j0.000000000000e+00
-2.252588110000e-04+j0.000000000000e+00
-3.431828370000e-04+j0.000000000000e+00
2.024023770000e-04+j0.000000000000e+00
-9.146521850000e-05+j0.000000000000e+00
-7.957015300000e-04+j0.000000000000e+00
1.584525690000e-03+j0.000000000000e+00
-9.323335510000e-04+j0.000000000000e+00
-1.037817830000e-03+j0.000000000000e+00
-2.221688460000e-01+j0.000000000000e+00
1.650000000000e+00+j0.000000000000e+00
-2.221688460000e-01+j0.000000000000e+00
-1.037817830000e-03+j0.000000000000e+00
-9.323335510000e-04+j0.000000000000e+00
1.584525690000e-03+j0.000000000000e+00
-7.957015300000e-04+j0.000000000000e+00
-2.448527740000e-03+j0.000000000000e+00
5.063326000000e-03+j0.000000000000e+00
-1.655828540000e-03+j0.000000000000e+00
-2.096229850000e-03+j0.000000000000e+00
-2.596179300000e-01+j0.000000000000e+00
1.650000000000e+00+j0.000000000000e+00
-2.596179300000e-01+j0.000000000000e+00
-2.096229850000e-03+j0.000000000000e+00
-1.655828540000e-03+j0.000000000000e+00
5.063326000000e-03+j0.000000000000e+00
-2.448527740000e-03+j0.000000000000e+00
-3.597589700000e-03+j0.000000000000e+00
7.704409100000e-03+j0.000000000000e+00
-1.584848940000e-03+j0.000000000000e+00
-3.392026890000e-03+j0.000000000000e+00
-2.933570860000e-01+j0.000000000000e+00
1.650000000000e+00+j0.000000000000e+00
-2.933570860000e-01+j0.000000000000e+00
-3.392026890000e-03+j0.000000000000e+00
-1.584848940000e-03+j0.000000000000e+00
7.704409100000e-03+j0.000000000000e+00
-3.597589700000e-03+j0.000000000000e+00
-3.972621930000e-03+j0.000000000000e+00
8.642699540000e-03+j0.000000000000e+00
-3.315513080000e-04+j0.000000000000e+00
-5.262095430000e-03+j0.000000000000e+00
-3.223719000000e-01+j0.000000000000e+00
1.650000000000e+00+j0.000000000000e+00
-3.223719000000e-01+j0.000000000000e+00
-5.262095430000e-03+j0.000000000000e+00
-3.315513080000e-04+j0.000000000000e+00
8.642699540000e-03+j0.000000000000e+00
-3.972621930000e-03+j0.000000000000e+00
-4.121084770000e-03+j0.000000000000e+00
8.588168580000e-03+j0.000000000000e+00
1.037279090000e-03+j0.000000000000e+00
-7.307600390000e-03+j0.000000000000e+00
-3.493062060000e-01+j0.000000000000e+00
1.650000000000e+00+j0.000000000000e+00
-3.493062060000e-01+j0.000000000000e+00
-7.307600390000e-03+j0.000000000000e+00
1.037279090000e-03+j0.000000000000e+00
8.588168580000e-03+j0.000000000000e+00
-4.121084770000e-03+j0.000000000000e+00
-4.726554310000e-03+j0.000000000000e+00
6.779017390000e-03+j0.000000000000e+00
3.547228210000e-04+j0.000000000000e+00
-9.763453770000e-03+j0.000000000000e+00
-3.707415570000e-01+j0.000000000000e+00
1.650000000000e+00+j0.000000000000e+00
-3.707415570000e-01+j0.000000000000e+00
-9.763453770000e-03+j0.000000000000e+00
3.547228210000e-04+j0.000000000000e+00
6.779017390000e-03+j0.000000000000e+00
-4.726554310000e-03+j0.000000000000e+00
-4.672154840000e-03+j0.000000000000e+00
3.568930560000e-03+j0.000000000000e+00
-3.059598320000e-03+j0.000000000000e+00
-1.350899830000e-02+j0.000000000000e+00
-3.853621080000e-01+j0.000000000000e+00
1.650000000000e+00+j0.000000000000e+00
-3.853621080000e-01+j0.000000000000e+00
-1.350899830000e-02+j0.000000000000e+00
-3.059598320000e-03+j0.000000000000e+00
3.568930560000e-03+j0.000000000000e+00
-4.672154840000e-03+j0.000000000000e+00
</dep>
<dep Im(V(COLLECTOR_VOLTAGE)) FREQ Y>
4.246273490000e-12+j0.000000000000e+00
-1.158863860000e-09+j0.000000000000e+00
9.287597260000e-08+j0.000000000000e+00
2.394994180000e-06+j0.000000000000e+00
-9.363130490000e-03+j0.000000000000e+00
0.000000000000e+00+j0.000000000000e+00
9.363130490000e-03+j0.000000000000e+00
-2.394994180000e-06+j0.000000000000e+00
-9.287597260000e-08+j0.000000000000e+00
1.158863860000e-09+j0.000000000000e+00
-4.246273490000e-12+j0.000000000000e+00
1.006334450000e-06+j0.000000000000e+00
-2.295832950000e-05+j0.000000000000e+00
1.594553720000e-04+j0.000000000000e+00
3.916776220000e-04+j0.000000000000e+00
-1.130097910000e-01+j0.000000000000e+00
0.000000000000e+00+j0.000000000000e+00
1.130097910000e-01+j0.000000000000e+00
-3.916776220000e-04+j0.000000000000e+00
-1.594553720000e-04+j0.000000000000e+00
2.295832950000e-05+j0.000000000000e+00
-1.006334450000e-06+j0.000000000000e+00
2.208440550000e-05+j0.000000000000e+00
-3.054511790000e-04+j0.000000000000e+00
1.189435790000e-03+j0.000000000000e+00
1.662668710000e-03+j0.000000000000e+00
-2.152912830000e-01+j0.000000000000e+00
0.000000000000e+00+j0.000000000000e+00
2.152912830000e-01+j0.000000000000e+00
-1.662668710000e-03+j0.000000000000e+00
-1.189435790000e-03+j0.000000000000e+00
3.054511790000e-04+j0.000000000000e+00
-2.208440550000e-05+j0.000000000000e+00
2.382467060000e-04+j0.000000000000e+00
-2.104284140000e-03+j0.000000000000e+00
5.586998230000e-03+j0.000000000000e+00
1.074898800000e-03+j0.000000000000e+00
-2.771629690000e-01+j0.000000000000e+00
0.000000000000e+00+j0.000000000000e+00
2.771629690000e-01+j0.000000000000e+00
-1.074898800000e-03+j0.000000000000e+00
-5.586998230000e-03+j0.000000000000e+00
2.104284140000e-03+j0.000000000000e+00
-2.382467060000e-04+j0.000000000000e+00
-1.295285690000e-04+j0.000000000000e+00
-5.677039040000e-03+j0.000000000000e+00
1.419796470000e-02+j0.000000000000e+00
-2.638428570000e-03+j0.000000000000e+00
-2.979143640000e-01+j0.000000000000e+00
0.000000000000e+00+j0.000000000000e+00
2.979143640000e-01+j0.000000000000e+00
2.638428570000e-03+j0.000000000000e+00
-1.419796470000e-02+j0.000000000000e+00
5.677039040000e-03+j0.000000000000e+00
1.295285690000e-04+j0.000000000000e+00
-1.967968110000e-03+j0.000000000000e+00
-8.207170580000e-03+j0.000000000000e+00
2.215569000000e-02+j0.000000000000e+00
-5.203340220000e-03+j0.000000000000e+00
-3.203150760000e-01+j0.000000000000e+00
0.000000000000e+00+j0.000000000000e+00
3.203150760000e-01+j0.000000000000e+00
5.203340220000e-03+j0.000000000000e+00
-2.215569000000e-02+j0.000000000000e+00
8.207170580000e-03+j0.000000000000e+00
1.967968110000e-03+j0.000000000000e+00
-4.625525770000e-03+j0.000000000000e+00
-9.811153510000e-03+j0.000000000000e+00
2.896763230000e-02+j0.000000000000e+00
-6.279339900000e-03+j0.000000000000e+00
-3.464395030000e-01+j0.000000000000e+00
0.000000000000e+00+j0.000000000000e+00
3.464395030000e-01+j0.000000000000e+00
6.279339900000e-03+j0.000000000000e+00
-2.896763230000e-02+j0.000000000000e+00
9.811153510000e-03+j0.000000000000e+00
4.625525770000e-03+j0.000000000000e+00
-7.612128600000e-03+j0.000000000000e+00
-1.103620930000e-02+j0.000000000000e+00
3.558398540000e-02+j0.000000000000e+00
-5.638662790000e-03+j0.000000000000e+00
-3.750700950000e-01+j0.000000000000e+00
0.000000000000e+00+j0.000000000000e+00
3.750700950000e-01+j0.000000000000e+00
5.638662790000e-03+j0.000000000000e+00
-3.558398540000e-02+j0.000000000000e+00
1.103620930000e-02+j0.000000000000e+00
7.612128600000e-03+j0.000000000000e+00
-1.112683470000e-02+j0.000000000000e+00
-1.222673160000e-02+j0.000000000000e+00
4.376209030000e-02+j0.000000000000e+00
-8.670005640000e-04+j0.000000000000e+00
-4.002211930000e-01+j0.000000000000e+00
0.000000000000e+00+j0.000000000000e+00
4.002211930000e-01+j0.000000000000e+00
8.670005640000e-04+j0.000000000000e+00
-4.376209030000e-02+j0.000000000000e+00
1.222673160000e-02+j0.000000000000e+00
1.112683470000e-02+j0.000000000000e+00
-1.573188200000e-02+j0.000000000000e+00
-1.458548100000e-02+j0.000000000000e+00
5.273300440000e-02+j0.000000000000e+00
7.721022150000e-03+j0.000000000000e+00
-4.190899660000e-01+j0.000000000000e+00
0.000000000000e+00+j0.000000000000e+00
4.190899660000e-01+j0.000000000000e+00
-7.721022150000e-03+j0.000000000000e+00
-5.273300440000e-02+j0.000000000000e+00
1.458548100000e-02+j0.000000000000e+00
1.573188200000e-02+j0.000000000000e+00
</dep>
<dep Re(I(VPR1)) FREQ Y>
4.192708750000e-13+j0.000000000000e+00
-1.530629100000e-11+j0.000000000000e+00
5.336289140000e-10+j0.000000000000e+00
1.157011890000e-09+j0.000000000000e+00
1.423211750000e-04+j0.000000000000e+00
1.237166620000e-02+j0.000000000000e+00
1.423211750000e-04+j0.000000000000e+00
1.157011890000e-09+j0.000000000000e+00
5.336289140000e-10+j0.000000000000e+00
-1.530629100000e-11+j0.000000000000e+00
4.192708750000e-13+j0.000000000000e+00
8.530119410000e-08+j0.000000000000e+00
-3.026210700000e-07+j0.000000000000e+00
9.424638940000e-07+j0.000000000000e+00
4.574661720000e-07+j0.000000000000e+00
1.715496280000e-03+j0.000000000000e+00
1.322192270000e-02+j0.000000000000e+00
1.715496280000e-03+j0.000000000000e+00
4.574661720000e-07+j0.000000000000e+00
9.424638940000e-07+j0.000000000000e+00
-3.026210700000e-07+j0.000000000000e+00
8.530119410000e-08+j0.000000000000e+00
1.829318420000e-06+j0.000000000000e+00
-4.048290520000e-06+j0.000000000000e+00
6.864918270000e-06+j0.000000000000e+00
4.507821380000e-06+j0.000000000000e+00
3.277550910000e-03+j0.000000000000e+00
1.482979800000e-02+j0.000000000000e+00
3.277550910000e-03+j0.000000000000e+00
4.507821380000e-06+j0.000000000000e+00
6.864918270000e-06+j0.000000000000e+00
-4.048290520000e-06+j0.000000000000e+00
1.829318420000e-06+j0.000000000000e+00
1.591418220000e-05+j0.000000000000e+00
-3.169218760000e-05+j0.000000000000e+00
1.865259660000e-05+j0.000000000000e+00
2.075806660000e-05+j0.000000000000e+00
4.442495040000e-03+j0.000000000000e+00
1.457886660000e-02+j0.000000000000e+00
4.442495040000e-03+j0.000000000000e+00
2.075806660000e-05+j0.000000000000e+00
1.865259660000e-05+j0.000000000000e+00
-3.169218760000e-05+j0.000000000000e+00
1.591418220000e-05+j0.000000000000e+00
4.897047250000e-05+j0.000000000000e+00
-1.012710360000e-04+j0.000000000000e+00
3.313162920000e-05+j0.000000000000e+00
4.192039960000e-05+j0.000000000000e+00
5.191410700000e-03+j0.000000000000e+00
1.473544790000e-02+j0.000000000000e+00
5.191410700000e-03+j0.000000000000e+00
4.192039960000e-05+j0.000000000000e+00
3.313162920000e-05+j0.000000000000e+00
-1.012710360000e-04+j0.000000000000e+00
4.897047250000e-05+j0.000000000000e+00
7.195054160000e-05+j0.000000000000e+00
-1.540947110000e-04+j0.000000000000e+00
3.172047740000e-05+j0.000000000000e+00
6.783225970000e-05+j0.000000000000e+00
5.866122530000e-03+j0.000000000000e+00
1.564070430000e-02+j0.000000000000e+00
5.866122530000e-03+j0.000000000000e+00
6.783225970000e-05+j0.000000000000e+00
3.172047740000e-05+j0.000000000000e+00
-1.540947110000e-04+j0.000000000000e+00
7.195054160000e-05+j0.000000000000e+00
7.944949500000e-05+j0.000000000000e+00
-1.728617950000e-04+j0.000000000000e+00
6.661749470000e-06+j0.000000000000e+00
1.052319190000e-04+j0.000000000000e+00
6.446335700000e-03+j0.000000000000e+00
1.674316730000e-02+j0.000000000000e+00
6.446335700000e-03+j0.000000000000e+00
1.052319190000e-04+j0.000000000000e+00
6.661749470000e-06+j0.000000000000e+00
-1.728617950000e-04+j0.000000000000e+00
7.944949500000e-05+j0.000000000000e+00
8.241685130000e-05+j0.000000000000e+00
-1.717721510000e-04+j0.000000000000e+00
-2.070784120000e-05+j0.000000000000e+00
1.461430370000e-04+j0.000000000000e+00
6.984930710000e-03+j0.000000000000e+00
1.796951260000e-02+j0.000000000000e+00
6.984930710000e-03+j0.000000000000e+00
1.461430370000e-04+j0.000000000000e+00
-2.070784120000e-05+j0.000000000000e+00
-1.717721510000e-04+j0.000000000000e+00
8.241685130000e-05+j0.000000000000e+00
9.452400550000e-05+j0.000000000000e+00
-1.355900740000e-04+j0.000000000000e+00
-7.048041980000e-06+j0.000000000000e+00
1.952676960000e-04+j0.000000000000e+00
7.413557710000e-03+j0.000000000000e+00
1.905636420000e-02+j0.000000000000e+00
7.413557710000e-03+j0.000000000000e+00
1.952676960000e-04+j0.000000000000e+00
-7.048041980000e-06+j0.000000000000e+00
-1.355900740000e-04+j0.000000000000e+00
9.452400550000e-05+j0.000000000000e+00
9.343308550000e-05+j0.000000000000e+00
-7.139021330000e-05+j0.000000000000e+00
6.124789550000e-05+j0.000000000000e+00
2.701922500000e-04+j0.000000000000e+00
7.705908690000e-03+j0.000000000000e+00
1.986968550000e-02+j0.000000000000e+00
7.705908690000e-03+j0.000000000000e+00
2.701922500000e-04+j0.000000000000e+00
6.124789550000e-05+j0.000000000000e+00
-7.139021330000e-05+j0.000000000000e+00
9.343308550000e-05+j0.000000000000e+00
</dep>
<dep Im(I(VPR1)) FREQ Y>
-8.491153260000e-14+j0.000000000000e+00
2.317666930000e-11+j0.000000000000e+00
-1.857491160000e-09+j0.000000000000e+00
-4.789979190000e-08+j0.000000000000e+00
1.872852570000e-04+j0.000000000000e+00
0.000000000000e+00+j0.000000000000e+00
-1.872852570000e-04+j0.000000000000e+00
4.789979190000e-08+j0.000000000000e+00
1.857491160000e-09+j0.000000000000e+00
-2.317666930000e-11+j0.000000000000e+00
8.491153260000e-14+j0.000000000000e+00
-2.012397490000e-08+j0.000000000000e+00
4.591545550000e-07+j0.000000000000e+00
-3.189057460000e-06+j0.000000000000e+00
-7.833516100000e-06+j0.000000000000e+00
2.260468790000e-03+j0.000000000000e+00
0.000000000000e+00+j0.000000000000e+00
-2.260468790000e-03+j0.000000000000e+00
7.833516100000e-06+j0.000000000000e+00
3.189057460000e-06+j0.000000000000e+00
-4.591545550000e-07+j0.000000000000e+00
2.012397490000e-08+j0.000000000000e+00
-4.416299050000e-07+j0.000000000000e+00
6.108862580000e-06+j0.000000000000e+00
-2.378835190000e-05+j0.000000000000e+00
-3.325301580000e-05+j0.000000000000e+00
4.306347200000e-03+j0.000000000000e+00
0.000000000000e+00+j0.000000000000e+00
-4.306347200000e-03+j0.000000000000e+00
3.325301580000e-05+j0.000000000000e+00
2.378835190000e-05+j0.000000000000e+00
-6.108862580000e-06+j0.000000000000e+00
4.416299050000e-07+j0.000000000000e+00
-4.764427770000e-06+j0.000000000000e+00
4.208442240000e-05+j0.000000000000e+00
-1.117389760000e-04+j0.000000000000e+00
-2.149632490000e-05+j0.000000000000e+00
5.543966290000e-03+j0.000000000000e+00
0.000000000000e+00+j0.000000000000e+00
-5.543966290000e-03+j0.000000000000e+00
2.149632490000e-05+j0.000000000000e+00
1.117389760000e-04+j0.000000000000e+00
-4.208442240000e-05+j0.000000000000e+00
4.764427770000e-06+j0.000000000000e+00
2.592129550000e-06+j0.000000000000e+00
1.135367530000e-04+j0.000000000000e+00
-2.839575390000e-04+j0.000000000000e+00
5.277190620000e-05+j0.000000000000e+00
5.959113340000e-03+j0.000000000000e+00
0.000000000000e+00+j0.000000000000e+00
-5.959113340000e-03+j0.000000000000e+00
-5.277190620000e-05+j0.000000000000e+00
2.839575390000e-04+j0.000000000000e+00
-1.135367530000e-04+j0.000000000000e+00
-2.592129550000e-06+j0.000000000000e+00
3.936165160000e-05+j0.000000000000e+00
1.641372830000e-04+j0.000000000000e+00
-4.431121200000e-04+j0.000000000000e+00
1.040722010000e-04+j0.000000000000e+00
6.407234920000e-03+j0.000000000000e+00
0.000000000000e+00+j0.000000000000e+00
-6.407234920000e-03+j0.000000000000e+00
-1.040722010000e-04+j0.000000000000e+00
4.431121200000e-04+j0.000000000000e+00
-1.641372830000e-04+j0.000000000000e+00
-3.936165160000e-05+j0.000000000000e+00
9.251304340000e-05+j0.000000000000e+00
1.962161950000e-04+j0.000000000000e+00
-5.793522940000e-04+j0.000000000000e+00
1.255951690000e-04+j0.000000000000e+00
6.929815780000e-03+j0.000000000000e+00
0.000000000000e+00+j0.000000000000e+00
-6.929815780000e-03+j0.000000000000e+00
-1.255951690000e-04+j0.000000000000e+00
5.793522940000e-04+j0.000000000000e+00
-1.962161950000e-04+j0.000000000000e+00
-9.251304340000e-05+j0.000000000000e+00
1.522451940000e-04+j0.000000000000e+00
2.207173550000e-04+j0.000000000000e+00
-7.116808080000e-04+j0.000000000000e+00
1.127848820000e-04+j0.000000000000e+00
7.502513340000e-03+j0.000000000000e+00
0.000000000000e+00+j0.000000000000e+00
-7.502513340000e-03+j0.000000000000e+00
-1.127848820000e-04+j0.000000000000e+00
7.116808080000e-04+j0.000000000000e+00
-2.207173550000e-04+j0.000000000000e+00
-1.522451940000e-04+j0.000000000000e+00
2.225397020000e-04+j0.000000000000e+00
2.445292400000e-04+j0.000000000000e+00
-8.752421820000e-04+j0.000000000000e+00
1.735554410000e-05+j0.000000000000e+00
8.005603500000e-03+j0.000000000000e+00
0.000000000000e+00+j0.000000000000e+00
-8.005603500000e-03+j0.000000000000e+00
-1.735554410000e-05+j0.000000000000e+00
8.752421820000e-04+j0.000000000000e+00
-2.445292400000e-04+j0.000000000000e+00
-2.225397020000e-04+j0.000000000000e+00
3.146406120000e-04+j0.000000000000e+00
2.917067810000e-04+j0.000000000000e+00
-1.054656840000e-03+j0.000000000000e+00
-1.543989510000e-04+j0.000000000000e+00
8.383025470000e-03+j0.000000000000e+00
0.000000000000e+00+j0.000000000000e+00
-8.383025470000e-03+j0.000000000000e+00
1.543989510000e-04+j0.000000000000e+00
1.054656840000e-03+j0.000000000000e+00
-2.917067810000e-04+j0.000000000000e+00
-3.146406120000e-04+j0.000000000000e+00
</dep>
<dep Re(I(VPR2)) FREQ Y>
3.855996250000e-21+j0.000000000000e+00
6.011331660000e-21+j0.000000000000e+00
5.529685930000e-21+j0.000000000000e+00
9.545681300000e-22+j0.000000000000e+00
-1.723693710000e-20+j0.000000000000e+00
-4.880333510000e-22+j0.000000000000e+00
-1.723693710000e-20+j0.000000000000e+00
9.545681300000e-22+j0.000000000000e+00
5.529685930000e-21+j0.000000000000e+00
6.011331660000e-21+j0.000000000000e+00
3.855996250000e-21+j0.000000000000e+00
3.860791220000e-20+j0.000000000000e+00
7.251004830000e-20+j0.000000000000e+00
5.405311370000e-20+j0.000000000000e+00
3.449064780000e-20+j0.000000000000e+00
-2.003655060000e-19+j0.000000000000e+00
-2.123663370000e-20+j0.000000000000e+00
-2.003655060000e-19+j0.000000000000e+00
3.449064780000e-20+j0.000000000000e+00
5.405311370000e-20+j0.000000000000e+00
7.251004830000e-20+j0.000000000000e+00
3.860791220000e-20+j0.000000000000e+00
6.969277730000e-20+j0.000000000000e+00
1.436896670000e-19+j0.000000000000e+00
1.235757130000e-19+j0.000000000000e+00
2.466256210000e-20+j0.000000000000e+00
-3.905987610000e-19+j0.000000000000e+00
3.890777860000e-20+j0.000000000000e+00
-3.905987610000e-19+j0.000000000000e+00
2.466256210000e-20+j0.000000000000e+00
1.235757130000e-19+j0.000000000000e+00
1.436896670000e-19+j0.000000000000e+00
6.969277730000e-20+j0.000000000000e+00
6.720173560000e-20+j0.000000000000e+00
1.363020600000e-19+j0.000000000000e+00
1.219709390000e-19+j0.000000000000e+00
1.152317750000e-19+j0.000000000000e+00
-4.723739080000e-19+j0.000000000000e+00
4.479490310000e-20+j0.000000000000e+00
-4.723739080000e-19+j0.000000000000e+00
1.152317750000e-19+j0.000000000000e+00
1.219709390000e-19+j0.000000000000e+00
1.363020600000e-19+j0.000000000000e+00
6.720173560000e-20+j0.000000000000e+00
1.788959680000e-19+j0.000000000000e+00
2.993520140000e-19+j0.000000000000e+00
1.416055170000e-19+j0.000000000000e+00
-1.074068770000e-19+j0.000000000000e+00
-6.882421930000e-19+j0.000000000000e+00
1.992021230000e-19+j0.000000000000e+00
-6.882421930000e-19+j0.000000000000e+00
