<Qucs Dataset 25.1.2>
<indep FREQ 42>
-1.500000000000e+11
-1.000000000000e+11
-5.000000000000e+10
0.000000000000e+00
5.000000000000e+10
1.000000000000e+11
1.500000000000e+11
-1.500000000000e+11
-1.000000000000e+11
-5.000000000000e+10
0.000000000000e+00
5.000000000000e+10
1.000000000000e+11
1.500000000000e+11
-1.500000000000e+11
-1.000000000000e+11
-5.000000000000e+10
0.000000000000e+00
5.000000000000e+10
1.000000000000e+11
1.500000000000e+11
-1.500000000000e+11
-1.000000000000e+11
-5.000000000000e+10
0.000000000000e+00
5.000000000000e+10
1.000000000000e+11
1.500000000000e+11
-1.500000000000e+11
-1.000000000000e+11
-5.000000000000e+10
0.000000000000e+00
5.000000000000e+10
1.000000000000e+11
1.500000000000e+11
-1.500000000000e+11
-1.000000000000e+11
-5.000000000000e+10
0.000000000000e+00
5.000000000000e+10
1.000000000000e+11
1.500000000000e+11
</indep>
<dep Re(V(COLLECTOR_VOLTAGE)) FREQ>
2.741709540000e-05+j0.000000000000e+00
-2.400002840000e-04+j0.000000000000e+00
5.042187590000e-02+j0.000000000000e+00
1.455154290000e+00+j0.000000000000e+00
5.042187590000e-02+j0.000000000000e+00
-2.400002840000e-04+j0.000000000000e+00
2.741709540000e-05+j0.000000000000e+00
3.893150190000e-05+j0.000000000000e+00
-3.045346370000e-04+j0.000000000000e+00
5.657209060000e-02+j0.000000000000e+00
1.455026490000e+00+j0.000000000000e+00
5.657209060000e-02+j0.000000000000e+00
-3.045346370000e-04+j0.000000000000e+00
3.893150190000e-05+j0.000000000000e+00
5.338976710000e-05+j0.000000000000e+00
-3.776255310000e-04+j0.000000000000e+00
6.271724210000e-02+j0.000000000000e+00
1.454861080000e+00+j0.000000000000e+00
6.271724210000e-02+j0.000000000000e+00
-3.776255310000e-04+j0.000000000000e+00
5.338976710000e-05+j0.000000000000e+00
7.119802800000e-05+j0.000000000000e+00
-4.596766590000e-04+j0.000000000000e+00
6.885839090000e-02+j0.000000000000e+00
1.454651850000e+00+j0.000000000000e+00
6.885839090000e-02+j0.000000000000e+00
-4.596766590000e-04+j0.000000000000e+00
7.119802800000e-05+j0.000000000000e+00
9.280212850000e-05+j0.000000000000e+00
-5.511558070000e-04+j0.000000000000e+00
7.499700090000e-02+j0.000000000000e+00
1.454392530000e+00+j0.000000000000e+00
7.499700090000e-02+j0.000000000000e+00
-5.511558070000e-04+j0.000000000000e+00
9.280212850000e-05+j0.000000000000e+00
1.186990110000e-04+j0.000000000000e+00
-6.526035620000e-04+j0.000000000000e+00
8.113492700000e-02+j0.000000000000e+00
1.454076900000e+00+j0.000000000000e+00
8.113492700000e-02+j0.000000000000e+00
-6.526035620000e-04+j0.000000000000e+00
1.186990110000e-04+j0.000000000000e+00
</dep>
<dep Im(V(COLLECTOR_VOLTAGE)) FREQ>
-7.388480590000e-06+j0.000000000000e+00
-4.154238310000e-04+j0.000000000000e+00
-8.606277000000e-02+j0.000000000000e+00
0.000000000000e+00+j0.000000000000e+00
8.606277000000e-02+j0.000000000000e+00
4.154238310000e-04+j0.000000000000e+00
7.388480590000e-06+j0.000000000000e+00
-1.064733470000e-05+j0.000000000000e+00
-5.247665700000e-04+j0.000000000000e+00
-9.655985930000e-02+j0.000000000000e+00
0.000000000000e+00+j0.000000000000e+00
9.655985930000e-02+j0.000000000000e+00
5.247665700000e-04+j0.000000000000e+00
1.064733470000e-05+j0.000000000000e+00
-1.480298880000e-05+j0.000000000000e+00
-6.475722570000e-04+j0.000000000000e+00
-1.070402670000e-01+j0.000000000000e+00
0.000000000000e+00+j0.000000000000e+00
1.070402670000e-01+j0.000000000000e+00
6.475722570000e-04+j0.000000000000e+00
1.480298880000e-05+j0.000000000000e+00
-1.999420650000e-05+j0.000000000000e+00
-7.842367470000e-04+j0.000000000000e+00
-1.175009020000e-01+j0.000000000000e+00
0.000000000000e+00+j0.000000000000e+00
1.175009020000e-01+j0.000000000000e+00
7.842367470000e-04+j0.000000000000e+00
1.999420650000e-05+j0.000000000000e+00
-2.637420270000e-05+j0.000000000000e+00
-9.352581270000e-04+j0.000000000000e+00
-1.279382990000e-01+j0.000000000000e+00
0.000000000000e+00+j0.000000000000e+00
1.279382990000e-01+j0.000000000000e+00
9.352581270000e-04+j0.000000000000e+00
2.637420270000e-05+j0.000000000000e+00
-3.411482610000e-05+j0.000000000000e+00
-1.101255700000e-03+j0.000000000000e+00
-1.383485880000e-01+j0.000000000000e+00
0.000000000000e+00+j0.000000000000e+00
1.383485880000e-01+j0.000000000000e+00
1.101255700000e-03+j0.000000000000e+00
3.411482610000e-05+j0.000000000000e+00
</dep>
<dep Re(I(VPR1)) FREQ>
-5.464148100000e-07+j0.000000000000e+00
4.189995990000e-06+j0.000000000000e+00
-1.168747780000e-03+j0.000000000000e+00
2.519615900000e-02+j0.000000000000e+00
-1.168747780000e-03+j0.000000000000e+00
4.189995990000e-06+j0.000000000000e+00
-5.464148100000e-07+j0.000000000000e+00
-7.760038080000e-07+j0.000000000000e+00
5.319345510000e-06+j0.000000000000e+00
-1.311304650000e-03+j0.000000000000e+00
2.521268580000e-02+j0.000000000000e+00
-1.311304650000e-03+j0.000000000000e+00
5.319345510000e-06+j0.000000000000e+00
-7.760038080000e-07+j0.000000000000e+00
-1.064336200000e-06+j0.000000000000e+00
6.599612640000e-06+j0.000000000000e+00
-1.453719890000e-03+j0.000000000000e+00
2.523407580000e-02+j0.000000000000e+00
-1.453719890000e-03+j0.000000000000e+00
6.599612640000e-06+j0.000000000000e+00
-1.064336200000e-06+j0.000000000000e+00
-1.419526900000e-06+j0.000000000000e+00
8.038190130000e-06+j0.000000000000e+00
-1.596003280000e-03+j0.000000000000e+00
2.526113120000e-02+j0.000000000000e+00
-1.596003280000e-03+j0.000000000000e+00
8.038190130000e-06+j0.000000000000e+00
-1.419526900000e-06+j0.000000000000e+00
-1.850484820000e-06+j0.000000000000e+00
9.643599640000e-06+j0.000000000000e+00
-1.738170770000e-03+j0.000000000000e+00
2.529466500000e-02+j0.000000000000e+00
-1.738170770000e-03+j0.000000000000e+00
9.643599640000e-06+j0.000000000000e+00
-1.850484820000e-06+j0.000000000000e+00
-2.367140700000e-06+j0.000000000000e+00
1.142563920000e-05+j0.000000000000e+00
-1.880244090000e-03+j0.000000000000e+00
2.533548020000e-02+j0.000000000000e+00
-1.880244090000e-03+j0.000000000000e+00
1.142563920000e-05+j0.000000000000e+00
-2.367140700000e-06+j0.000000000000e+00
</dep>
<dep Im(I(VPR1)) FREQ>
1.264639820000e-07+j0.000000000000e+00
8.344833590000e-06+j0.000000000000e+00
1.399263840000e-03+j0.000000000000e+00
0.000000000000e+00+j0.000000000000e+00
-1.399263840000e-03+j0.000000000000e+00
-8.344833590000e-06+j0.000000000000e+00
-1.264639820000e-07+j0.000000000000e+00
1.826526470000e-07+j0.000000000000e+00
1.054281170000e-05+j0.000000000000e+00
1.569931510000e-03+j0.000000000000e+00
0.000000000000e+00+j0.000000000000e+00
-1.569931510000e-03+j0.000000000000e+00
-1.054281170000e-05+j0.000000000000e+00
-1.826526470000e-07+j0.000000000000e+00
2.544626780000e-07+j0.000000000000e+00
1.301211380000e-05+j0.000000000000e+00
1.740313740000e-03+j0.000000000000e+00
0.000000000000e+00+j0.000000000000e+00
-1.740313740000e-03+j0.000000000000e+00
-1.301211380000e-05+j0.000000000000e+00
-2.544626780000e-07+j0.000000000000e+00
3.443460950000e-07+j0.000000000000e+00
1.576089100000e-05+j0.000000000000e+00
1.910351610000e-03+j0.000000000000e+00
0.000000000000e+00+j0.000000000000e+00
-1.910351610000e-03+j0.000000000000e+00
-1.576089100000e-05+j0.000000000000e+00
-3.443460950000e-07+j0.000000000000e+00
4.550121120000e-07+j0.000000000000e+00
1.879935350000e-05+j0.000000000000e+00
2.079978230000e-03+j0.000000000000e+00
0.000000000000e+00+j0.000000000000e+00
-2.079978230000e-03+j0.000000000000e+00
-1.879935350000e-05+j0.000000000000e+00
-4.550121120000e-07+j0.000000000000e+00
5.895016420000e-07+j0.000000000000e+00
2.214014990000e-05+j0.000000000000e+00
2.249118230000e-03+j0.000000000000e+00
0.000000000000e+00+j0.000000000000e+00
-2.249118230000e-03+j0.000000000000e+00
-2.214014990000e-05+j0.000000000000e+00
-5.895016420000e-07+j0.000000000000e+00
</dep>
<dep Re(I(VPR2)) FREQ>
2.009022310000e-20+j0.000000000000e+00
-6.698314530000e-21+j0.000000000000e+00
-3.093699900000e-20+j0.000000000000e+00
1.963821380000e-20+j0.000000000000e+00
-3.093699900000e-20+j0.000000000000e+00
-6.698314530000e-21+j0.000000000000e+00
2.009022310000e-20+j0.000000000000e+00
3.674082980000e-20+j0.000000000000e+00
-3.444022010000e-20+j0.000000000000e+00
-4.713006120000e-20+j0.000000000000e+00
-1.163283740000e-12+j0.000000000000e+00
-4.713006120000e-20+j0.000000000000e+00
-3.444022010000e-20+j0.000000000000e+00
3.674082980000e-20+j0.000000000000e+00
2.403862720000e-20+j0.000000000000e+00
1.600727510000e-21+j0.000000000000e+00
-3.145117000000e-20+j0.000000000000e+00
-1.720508310000e-21+j0.000000000000e+00
-3.145117000000e-20+j0.000000000000e+00
1.600727510000e-21+j0.000000000000e+00
2.403862720000e-20+j0.000000000000e+00
1.381944370000e-20+j0.000000000000e+00
-6.264985590000e-21+j0.000000000000e+00
-2.788453510000e-20+j0.000000000000e+00
3.876571210000e-20+j0.000000000000e+00
-2.788453510000e-20+j0.000000000000e+00
-6.264985590000e-21+j0.000000000000e+00
1.381944370000e-20+j0.000000000000e+00
-1.348788260000e-21+j0.000000000000e+00
1.527326070000e-20+j0.000000000000e+00
-2.595634120000e-20+j0.000000000000e+00
-2.174734940000e-19+j0.000000000000e+00
-2.595634120000e-20+j0.000000000000e+00
1.527326070000e-20+j0.000000000000e+00
-1.348788260000e-21+j0.000000000000e+00
2.610035540000e-21+j0.000000000000e+00
-6.071527980000e-21+j0.000000000000e+00
-2.768052940000e-20+j0.000000000000e+00
2.616299030000e-20+j0.000000000000e+00
-2.768052940000e-20+j0.000000000000e+00
-6.071527980000e-21+j0.000000000000e+00
2.610035540000e-21+j0.000000000000e+00
</dep>
<dep Im(I(VPR2)) FREQ>
1.144846040000e-20+j0.000000000000e+00
1.046148020000e-20+j0.000000000000e+00
2.500000000000e-04+j0.000000000000e+00
0.000000000000e+00+j0.000000000000e+00
-2.500000000000e-04+j0.000000000000e+00
-1.046148020000e-20+j0.000000000000e+00
-1.144846040000e-20+j0.000000000000e+00
4.001110980000e-20+j0.000000000000e+00
1.003969690000e-20+j0.000000000000e+00
2.806122500000e-04+j0.000000000000e+00
0.000000000000e+00+j0.000000000000e+00
-2.806122500000e-04+j0.000000000000e+00
-1.003969690000e-20+j0.000000000000e+00
-4.001110980000e-20+j0.000000000000e+00
1.336539220000e-20+j0.000000000000e+00
1.496714710000e-20+j0.000000000000e+00
3.112245000000e-04+j0.000000000000e+00
0.000000000000e+00+j0.000000000000e+00
-3.112245000000e-04+j0.000000000000e+00
-1.496714710000e-20+j0.000000000000e+00
-1.336539220000e-20+j0.000000000000e+00
-1.212188490000e-20+j0.000000000000e+00
2.490904860000e-20+j0.000000000000e+00
3.418367500000e-04+j0.000000000000e+00
0.000000000000e+00+j0.000000000000e+00
-3.418367500000e-04+j0.000000000000e+00
-2.490904860000e-20+j0.000000000000e+00
1.212188490000e-20+j0.000000000000e+00
1.297055360000e-20+j0.000000000000e+00
3.952883130000e-21+j0.000000000000e+00
3.724490000000e-04+j0.000000000000e+00
0.000000000000e+00+j0.000000000000e+00
-3.724490000000e-04+j0.000000000000e+00
-3.952883130000e-21+j0.000000000000e+00
-1.297055360000e-20+j0.000000000000e+00
2.106159910000e-20+j0.000000000000e+00
-7.808401980000e-21+j0.000000000000e+00
4.030612500000e-04+j0.000000000000e+00
0.000000000000e+00+j0.000000000000e+00
-4.030612500000e-04+j0.000000000000e+00
7.808401980000e-21+j0.000000000000e+00
-2.106159910000e-20+j0.000000000000e+00
</dep>
<dep Re(I(VPR3)) FREQ>
5.196032810000e-07+j0.000000000000e+00
-6.207250380000e-06+j0.000000000000e+00
2.793471010000e-04+j0.000000000000e+00
1.806312340000e-19+j0.000000000000e+00
2.793471010000e-04+j0.000000000000e+00
-6.207250380000e-06+j0.000000000000e+00
5.196032810000e-07+j0.000000000000e+00
7.374156080000e-07+j0.000000000000e+00
-7.867296110000e-06+j0.000000000000e+00
3.134234380000e-04+j0.000000000000e+00
8.574148510000e-12+j0.000000000000e+00
3.134234380000e-04+j0.000000000000e+00
-7.867296110000e-06+j0.000000000000e+00
7.374156080000e-07+j0.000000000000e+00
1.010749620000e-06+j0.000000000000e+00
-9.743485380000e-06+j0.000000000000e+00
3.475269570000e-04+j0.000000000000e+00
4.858614040000e-19+j0.000000000000e+00
3.475269570000e-04+j0.000000000000e+00
-9.743485380000e-06+j0.000000000000e+00
1.010749620000e-06+j0.000000000000e+00
1.347225920000e-06+j0.000000000000e+00
-1.184509970000e-05+j0.000000000000e+00
3.816972050000e-04+j0.000000000000e+00
3.201070040000e-19+j0.000000000000e+00
3.816972050000e-04+j0.000000000000e+00
-1.184509970000e-05+j0.000000000000e+00
1.347225920000e-06+j0.000000000000e+00
1.755207870000e-06+j0.000000000000e+00
-1.418304510000e-05+j0.000000000000e+00
4.159832620000e-04+j0.000000000000e+00
-6.012442570000e-18+j0.000000000000e+00
4.159832620000e-04+j0.000000000000e+00
-1.418304510000e-05+j0.000000000000e+00
1.755207870000e-06+j0.000000000000e+00
2.244014540000e-06+j0.000000000000e+00
-1.677009190000e-05+j0.000000000000e+00
4.504437490000e-04+j0.000000000000e+00
-1.469158220000e-19+j0.000000000000e+00
4.504437490000e-04+j0.000000000000e+00
-1.677009190000e-05+j0.000000000000e+00
2.244014540000e-06+j0.000000000000e+00
</dep>
<dep Im(I(VPR3)) FREQ>
-2.166841370000e-07+j0.000000000000e+00
-7.073583390000e-06+j0.000000000000e+00
-1.832404080000e-03+j0.000000000000e+00
0.000000000000e+00+j0.000000000000e+00
1.832404080000e-03+j0.000000000000e+00
7.073583390000e-06+j0.000000000000e+00
2.166841370000e-07+j0.000000000000e+00
-3.107494760000e-07+j0.000000000000e+00
-8.930182560000e-06+j0.000000000000e+00
-2.055904410000e-03+j0.000000000000e+00
0.000000000000e+00+j0.000000000000e+00
2.055904410000e-03+j0.000000000000e+00
8.930182560000e-06+j0.000000000000e+00
3.107494760000e-07+j0.000000000000e+00
-4.301146080000e-07+j0.000000000000e+00
-1.101304030000e-05+j0.000000000000e+00
-2.279081920000e-03+j0.000000000000e+00
0.000000000000e+00+j0.000000000000e+00
2.279081920000e-03+j0.000000000000e+00
1.101304030000e-05+j0.000000000000e+00
4.301146080000e-07+j0.000000000000e+00
-5.785655170000e-07+j0.000000000000e+00
-1.332822720000e-05+j0.000000000000e+00
-2.501890530000e-03+j0.000000000000e+00
0.000000000000e+00+j0.000000000000e+00
2.501890530000e-03+j0.000000000000e+00
1.332822720000e-05+j0.000000000000e+00
5.785655170000e-07+j0.000000000000e+00
-7.602757270000e-07+j0.000000000000e+00
-1.588353540000e-05+j0.000000000000e+00
-2.724280460000e-03+j0.000000000000e+00
0.000000000000e+00+j0.000000000000e+00
2.724280460000e-03+j0.000000000000e+00
1.588353540000e-05+j0.000000000000e+00
7.602757270000e-07+j0.000000000000e+00
-9.799181930000e-07+j0.000000000000e+00
-1.868881020000e-05+j0.000000000000e+00
-2.946197630000e-03+j0.000000000000e+00
0.000000000000e+00+j0.000000000000e+00
2.946197630000e-03+j0.000000000000e+00
1.868881020000e-05+j0.000000000000e+00
9.799181930000e-07+j0.000000000000e+00
</dep>
<dep Re(V(VCC)) FREQ>
0.000000000000e+00+j0.000000000000e+00
0.000000000000e+00+j0.000000000000e+00
0.000000000000e+00+j0.000000000000e+00
1.650000000000e+00+j0.000000000000e+00
0.000000000000e+00+j0.000000000000e+00
0.000000000000e+00+j0.000000000000e+00
0.000000000000e+00+j0.000000000000e+00
0.000000000000e+00+j0.000000000000e+00
0.000000000000e+00+j0.000000000000e+00
0.000000000000e+00+j0.000000000000e+00
1.650000000000e+00+j0.000000000000e+00
0.000000000000e+00+j0.000000000000e+00
0.000000000000e+00+j0.000000000000e+00
0.000000000000e+00+j0.000000000000e+00
0.000000000000e+00+j0.000000000000e+00
0.000000000000e+00+j0.000000000000e+00
0.000000000000e+00+j0.000000000000e+00
1.650000000000e+00+j0.000000000000e+00
0.000000000000e+00+j0.000000000000e+00
0.000000000000e+00+j0.000000000000e+00
0.000000000000e+00+j0.000000000000e+00
0.000000000000e+00+j0.000000000000e+00
0.000000000000e+00+j0.000000000000e+00
0.000000000000e+00+j0.000000000000e+00
1.650000000000e+00+j0.000000000000e+00
0.000000000000e+00+j0.000000000000e+00
0.000000000000e+00+j0.000000000000e+00
0.000000000000e+00+j0.000000000000e+00
0.000000000000e+00+j0.000000000000e+00
0.000000000000e+00+j0.000000000000e+00
0.000000000000e+00+j0.000000000000e+00
1.650000000000e+00+j0.000000000000e+00
0.000000000000e+00+j0.000000000000e+00
0.000000000000e+00+j0.000000000000e+00
0.000000000000e+00+j0.000000000000e+00
0.000000000000e+00+j0.000000000000e+00
0.000000000000e+00+j0.000000000000e+00
0.000000000000e+00+j0.000000000000e+00
1.650000000000e+00+j0.000000000000e+00
0.000000000000e+00+j0.000000000000e+00
0.000000000000e+00+j0.000000000000e+00
0.000000000000e+00+j0.000000000000e+00
</dep>
<dep Im(V(VCC)) FREQ>
0.000000000000e+00+j0.000000000000e+00
0.000000000000e+00+j0.000000000000e+00
0.000000000000e+00+j0.000000000000e+00
0.000000000000e+00+j0.000000000000e+00
0.000000000000e+00+j0.000000000000e+00
0.000000000000e+00+j0.000000000000e+00
0.000000000000e+00+j0.000000000000e+00
0.000000000000e+00+j0.000000000000e+00
0.000000000000e+00+j0.000000000000e+00
0.000000000000e+00+j0.000000000000e+00
0.000000000000e+00+j0.000000000000e+00
0.000000000000e+00+j0.000000000000e+00
0.000000000000e+00+j0.000000000000e+00
0.000000000000e+00+j0.000000000000e+00
0.000000000000e+00+j0.000000000000e+00
0.000000000000e+00+j0.000000000000e+00
0.000000000000e+00+j0.000000000000e+00
0.000000000000e+00+j0.000000000000e+00
0.000000000000e+00+j0.000000000000e+00
0.000000000000e+00+j0.000000000000e+00
0.000000000000e+00+j0.000000000000e+00
0.000000000000e+00+j0.000000000000e+00
0.000000000000e+00+j0.000000000000e+00
0.000000000000e+00+j0.000000000000e+00
0.000000000000e+00+j0.000000000000e+00
0.000000000000e+00+j0.000000000000e+00
0.000000000000e+00+j0.000000000000e+00
0.000000000000e+00+j0.000000000000e+00
0.000000000000e+00+j0.000000000000e+00
0.000000000000e+00+j0.000000000000e+00
0.000000000000e+00+j0.000000000000e+00
0.000000000000e+00+j0.000000000000e+00
0.000000000000e+00+j0.000000000000e+00
0.000000000000e+00+j0.000000000000e+00
0.000000000000e+00+j0.000000000000e+00
0.000000000000e+00+j0.000000000000e+00
0.000000000000e+00+j0.000000000000e+00
0.000000000000e+00+j0.000000000000e+00
0.000000000000e+00+j0.000000000000e+00
0.000000000000e+00+j0.000000000000e+00
0.000000000000e+00+j0.000000000000e+00
0.000000000000e+00+j0.000000000000e+00
</dep>
<dep Re(V(VIN)) FREQ>
-1.840696570000e-06+j0.000000000000e+00
1.245093850000e-04+j0.000000000000e+00
-2.113281390000e-02+j0.000000000000e+00
2.170298530000e+01+j0.000000000000e+00
-2.113281390000e-02+j0.000000000000e+00
1.245093850000e-04+j0.000000000000e+00
-1.840696570000e-06+j0.000000000000e+00
-2.645142260000e-06+j0.000000000000e+00
1.571424350000e-04+j0.000000000000e+00
-2.371944760000e-02+j0.000000000000e+00
2.436049670000e+01+j0.000000000000e+00
-2.371944760000e-02+j0.000000000000e+00
1.571424350000e-04+j0.000000000000e+00
-2.645142260000e-06+j0.000000000000e+00
-3.670223230000e-06+j0.000000000000e+00
1.936504980000e-04+j0.000000000000e+00
-2.630693770000e-02+j0.000000000000e+00
2.701800820000e+01+j0.000000000000e+00
-2.630693770000e-02+j0.000000000000e+00
1.936504980000e-04+j0.000000000000e+00
-3.670223230000e-06+j0.000000000000e+00
-4.950850520000e-06+j0.000000000000e+00
2.340547290000e-04+j0.000000000000e+00
-2.889599160000e-02+j0.000000000000e+00
2.967551940000e+01+j0.000000000000e+00
-2.889599160000e-02+j0.000000000000e+00
2.340547290000e-04+j0.000000000000e+00
-4.950850520000e-06+j0.000000000000e+00
-6.525732210000e-06+j0.000000000000e+00
2.783721950000e-04+j0.000000000000e+00
-3.148747180000e-02+j0.000000000000e+00
3.233303080000e+01+j0.000000000000e+00
-3.148747180000e-02+j0.000000000000e+00
2.783721950000e-04+j0.000000000000e+00
-6.525732210000e-06+j0.000000000000e+00
-8.438236770000e-06+j0.000000000000e+00
3.266150090000e-04+j0.000000000000e+00
-3.408239400000e-02+j0.000000000000e+00
3.499054220000e+01+j0.000000000000e+00
-3.408239400000e-02+j0.000000000000e+00
3.266150090000e-04+j0.000000000000e+00
-8.438236770000e-06+j0.000000000000e+00
</dep>
<dep Im(V(VIN)) FREQ>
-3.698796810000e-06+j0.000000000000e+00
4.586422510000e-06+j0.000000000000e+00
2.854688460000e-02+j0.000000000000e+00
0.000000000000e+00+j0.000000000000e+00
-2.854688460000e-02+j0.000000000000e+00
-4.586422510000e-06+j0.000000000000e+00
3.698796810000e-06+j0.000000000000e+00
-5.215918860000e-06+j0.000000000000e+00
5.910346880000e-06+j0.000000000000e+00
3.203789240000e-02+j0.000000000000e+00
0.000000000000e+00+j0.000000000000e+00
-3.203789240000e-02+j0.000000000000e+00
-5.910346880000e-06+j0.000000000000e+00
5.215918860000e-06+j0.000000000000e+00
