<Qucs Dataset 24.3.1>
<indep FREQ 11>
-2.500000000000e+11
-2.000000000000e+11
-1.500000000000e+11
-1.000000000000e+11
-5.000000000000e+10
0.000000000000e+00
5.000000000000e+10
1.000000000000e+11
1.500000000000e+11
2.000000000000e+11
2.500000000000e+11
</indep>
<dep Re(V(COLLECTOR_VOLTAGE)) FREQ>
-1.261444180000e-13+j0.000000000000e+00
-8.427946390000e-11+j0.000000000000e+00
-1.867337650000e-09+j0.000000000000e+00
-9.758613780000e-07+j0.000000000000e+00
3.449161650000e-03+j0.000000000000e+00
1.650000000000e+00+j0.000000000000e+00
3.449161650000e-03+j0.000000000000e+00
-9.758613780000e-07+j0.000000000000e+00
-1.867337650000e-09+j0.000000000000e+00
-8.427946390000e-11+j0.000000000000e+00
-1.261444180000e-13+j0.000000000000e+00
</dep>
<dep Im(V(COLLECTOR_VOLTAGE)) FREQ>
-3.248780750000e-13+j0.000000000000e+00
7.059997420000e-11+j0.000000000000e+00
2.262828400000e-09+j0.000000000000e+00
4.168713850000e-06+j0.000000000000e+00
7.421311640000e-04+j0.000000000000e+00
0.000000000000e+00+j0.000000000000e+00
-7.421311640000e-04+j0.000000000000e+00
-4.168713850000e-06+j0.000000000000e+00
-2.262828400000e-09+j0.000000000000e+00
-7.059997420000e-11+j0.000000000000e+00
3.248780750000e-13+j0.000000000000e+00
</dep>
<dep Re(I(VPR1)) FREQ>
-1.062280470000e-14+j0.000000000000e+00
4.439942400000e-13+j0.000000000000e+00
-2.013332090000e-11+j0.000000000000e+00
9.088688490000e-09+j0.000000000000e+00
-4.447933950000e-05+j0.000000000000e+00
9.169816580000e-21+j0.000000000000e+00
-4.447933950000e-05+j0.000000000000e+00
9.088688490000e-09+j0.000000000000e+00
-2.013332090000e-11+j0.000000000000e+00
4.439942400000e-13+j0.000000000000e+00
-1.062280470000e-14+j0.000000000000e+00
</dep>
<dep Im(I(VPR1)) FREQ>
-1.040287130000e-14+j0.000000000000e+00
2.577568590000e-13+j0.000000000000e+00
1.283932490000e-10+j0.000000000000e+00
-9.341247700000e-09+j0.000000000000e+00
1.177360850000e-04+j0.000000000000e+00
0.000000000000e+00+j0.000000000000e+00
-1.177360850000e-04+j0.000000000000e+00
9.341247700000e-09+j0.000000000000e+00
-1.283932490000e-10+j0.000000000000e+00
-2.577568590000e-13+j0.000000000000e+00
1.040287130000e-14+j0.000000000000e+00
</dep>
<dep Re(I(VPR2)) FREQ>
-4.920015460000e-15+j0.000000000000e+00
1.888793030000e-18+j0.000000000000e+00
-7.430801950000e-11+j0.000000000000e+00
1.298134130000e-18+j0.000000000000e+00
1.357759400000e-04+j0.000000000000e+00
1.614458080000e-20+j0.000000000000e+00
1.357759400000e-04+j0.000000000000e+00
1.298134130000e-18+j0.000000000000e+00
-7.430801950000e-11+j0.000000000000e+00
1.888793030000e-18+j0.000000000000e+00
-4.920015460000e-15+j0.000000000000e+00
</dep>
<dep Im(I(VPR2)) FREQ>
-1.322213890000e-14+j0.000000000000e+00
-1.506079210000e-18+j0.000000000000e+00
9.082850550000e-11+j0.000000000000e+00
3.882274450000e-19+j0.000000000000e+00
-1.720435060000e-04+j0.000000000000e+00
0.000000000000e+00+j0.000000000000e+00
1.720435060000e-04+j0.000000000000e+00
-3.882274450000e-19+j0.000000000000e+00
-9.082850550000e-11+j0.000000000000e+00
1.506079210000e-18+j0.000000000000e+00
1.322213890000e-14+j0.000000000000e+00
</dep>
<dep Re(V(VE)) FREQ>
5.014231680000e-13+j0.000000000000e+00
-3.088423080000e-11+j0.000000000000e+00
3.383842580000e-09+j0.000000000000e+00
-1.355367230000e-06+j0.000000000000e+00
1.277526590000e-02+j0.000000000000e+00
1.042071940000e-24+j0.000000000000e+00
1.277526590000e-02+j0.000000000000e+00
-1.355367230000e-06+j0.000000000000e+00
3.383842580000e-09+j0.000000000000e+00
-3.088423080000e-11+j0.000000000000e+00
5.014231680000e-13+j0.000000000000e+00
</dep>
<dep Im(V(VE)) FREQ>
7.989903330000e-13+j0.000000000000e+00
-2.007272370000e-11+j0.000000000000e+00
-6.091285970000e-09+j0.000000000000e+00
-1.619050460000e-07+j0.000000000000e+00
7.533271930000e-03+j0.000000000000e+00
0.000000000000e+00+j0.000000000000e+00
-7.533271930000e-03+j0.000000000000e+00
1.619050460000e-07+j0.000000000000e+00
6.091285970000e-09+j0.000000000000e+00
2.007272370000e-11+j0.000000000000e+00
-7.989903330000e-13+j0.000000000000e+00
</dep>
<dep Re(V(VB)) FREQ>
0.000000000000e+00+j0.000000000000e+00
2.018587320000e-17+j0.000000000000e+00
4.037174640000e-17+j0.000000000000e+00
4.037174640000e-17+j0.000000000000e+00
2.018587320000e-17+j0.000000000000e+00
9.700000000000e-01+j0.000000000000e+00
2.018587320000e-17+j0.000000000000e+00
4.037174640000e-17+j0.000000000000e+00
4.037174640000e-17+j0.000000000000e+00
2.018587320000e-17+j0.000000000000e+00
0.000000000000e+00+j0.000000000000e+00
</dep>
<dep Im(V(VB)) FREQ>
0.000000000000e+00+j0.000000000000e+00
0.000000000000e+00+j0.000000000000e+00
0.000000000000e+00+j0.000000000000e+00
0.000000000000e+00+j0.000000000000e+00
0.000000000000e+00+j0.000000000000e+00
0.000000000000e+00+j0.000000000000e+00
0.000000000000e+00+j0.000000000000e+00
0.000000000000e+00+j0.000000000000e+00
0.000000000000e+00+j0.000000000000e+00
0.000000000000e+00+j0.000000000000e+00
0.000000000000e+00+j0.000000000000e+00
</dep>
<dep Re(V(VBASE)) FREQ>
3.471780840000e-13+j0.000000000000e+00
-1.650203330000e-11+j0.000000000000e+00
4.790817950000e-09+j0.000000000000e+00
-8.674082430000e-07+j0.000000000000e+00
1.263412250000e-02+j0.000000000000e+00
9.700000000000e-01+j0.000000000000e+00
1.263412250000e-02+j0.000000000000e+00
-8.674082430000e-07+j0.000000000000e+00
4.790817950000e-09+j0.000000000000e+00
-1.650203330000e-11+j0.000000000000e+00
3.471780840000e-13+j0.000000000000e+00
</dep>
<dep Im(V(VBASE)) FREQ>
7.079957450000e-13+j0.000000000000e+00
-2.270227000000e-11+j0.000000000000e+00
-5.826270320000e-09+j0.000000000000e+00
6.525413540000e-08+j0.000000000000e+00
8.046032810000e-03+j0.000000000000e+00
0.000000000000e+00+j0.000000000000e+00
-8.046032810000e-03+j0.000000000000e+00
-6.525413540000e-08+j0.000000000000e+00
5.826270320000e-09+j0.000000000000e+00
2.270227000000e-11+j0.000000000000e+00
-7.079957450000e-13+j0.000000000000e+00
</dep>
<dep Re(V(VCC)) FREQ>
0.000000000000e+00+j0.000000000000e+00
4.037174640000e-17+j0.000000000000e+00
0.000000000000e+00+j0.000000000000e+00
0.000000000000e+00+j0.000000000000e+00
4.037174640000e-17+j0.000000000000e+00
1.650000000000e+00+j0.000000000000e+00
4.037174640000e-17+j0.000000000000e+00
0.000000000000e+00+j0.000000000000e+00
0.000000000000e+00+j0.000000000000e+00
4.037174640000e-17+j0.000000000000e+00
0.000000000000e+00+j0.000000000000e+00
</dep>
<dep Im(V(VCC)) FREQ>
0.000000000000e+00+j0.000000000000e+00
0.000000000000e+00+j0.000000000000e+00
0.000000000000e+00+j0.000000000000e+00
0.000000000000e+00+j0.000000000000e+00
0.000000000000e+00+j0.000000000000e+00
0.000000000000e+00+j0.000000000000e+00
0.000000000000e+00+j0.000000000000e+00
0.000000000000e+00+j0.000000000000e+00
0.000000000000e+00+j0.000000000000e+00
0.000000000000e+00+j0.000000000000e+00
0.000000000000e+00+j0.000000000000e+00
</dep>
<dep Re(V(VIN_P)) FREQ>
5.311411060000e-13+j0.000000000000e+00
-2.219971110000e-11+j0.000000000000e+00
1.006666050000e-09+j0.000000000000e+00
-4.544344240000e-07+j0.000000000000e+00
2.223966970000e-03+j0.000000000000e+00
3.160417280000e-19+j0.000000000000e+00
2.223966970000e-03+j0.000000000000e+00
-4.544344240000e-07+j0.000000000000e+00
1.006666050000e-09+j0.000000000000e+00
-2.219971110000e-11+j0.000000000000e+00
5.311411060000e-13+j0.000000000000e+00
</dep>
<dep Im(V(VIN_P)) FREQ>
5.201434880000e-13+j0.000000000000e+00
-1.288784250000e-11+j0.000000000000e+00
-6.419662460000e-09+j0.000000000000e+00
4.670623850000e-07+j0.000000000000e+00
4.113195730000e-03+j0.000000000000e+00
0.000000000000e+00+j0.000000000000e+00
-4.113195730000e-03+j0.000000000000e+00
-4.670623850000e-07+j0.000000000000e+00
6.419662460000e-09+j0.000000000000e+00
1.288784250000e-11+j0.000000000000e+00
-5.201434880000e-13+j0.000000000000e+00
</dep>
<dep Re(V(VOUT_P)) FREQ>
-1.270286410000e-13+j0.000000000000e+00
-8.427940470000e-11+j0.000000000000e+00
-1.857700430000e-09+j0.000000000000e+00
-9.758613780000e-07+j0.000000000000e+00
3.394398500000e-03+j0.000000000000e+00
1.648792690000e+00+j0.000000000000e+00
3.394398500000e-03+j0.000000000000e+00
-9.758613780000e-07+j0.000000000000e+00
-1.857700430000e-09+j0.000000000000e+00
-8.427940470000e-11+j0.000000000000e+00
-1.270286410000e-13+j0.000000000000e+00
</dep>
<dep Im(V(VOUT_P)) FREQ>
-3.245477140000e-13+j0.000000000000e+00
7.060004340000e-11+j0.000000000000e+00
2.270712710000e-09+j0.000000000000e+00
4.168713850000e-06+j0.000000000000e+00
6.989123400000e-04+j0.000000000000e+00
0.000000000000e+00+j0.000000000000e+00
-6.989123400000e-04+j0.000000000000e+00
-4.168713850000e-06+j0.000000000000e+00
-2.270712710000e-09+j0.000000000000e+00
-7.060004340000e-11+j0.000000000000e+00
3.245477140000e-13+j0.000000000000e+00
</dep>
<dep V(COLLECTOR_VOLTAGE) FREQ>
-1.261444180000e-13-j3.248780750000e-13
-8.427946390000e-11+j7.059997420000e-11
-1.867337650000e-09+j2.262828400000e-09
-9.758613780000e-07+j4.168713850000e-06
3.449161650000e-03+j7.421311640000e-04
1.650000000000e+00+j0.000000000000e+00
3.449161650000e-03-j7.421311640000e-04
-9.758613780000e-07-j4.168713850000e-06
-1.867337650000e-09-j2.262828400000e-09
-8.427946390000e-11-j7.059997420000e-11
-1.261444180000e-13+j3.248780750000e-13
</dep>
<dep I(PR1) FREQ>
-1.062280470000e-14-j1.040287130000e-14
4.439942400000e-13+j2.577568590000e-13
-2.013332090000e-11+j1.283932490000e-10
9.088688490000e-09-j9.341247700000e-09
-4.447933950000e-05+j1.177360850000e-04
9.169816580000e-21+j0.000000000000e+00
-4.447933950000e-05-j1.177360850000e-04
9.088688490000e-09+j9.341247700000e-09
-2.013332090000e-11-j1.283932490000e-10
4.439942400000e-13-j2.577568590000e-13
-1.062280470000e-14+j1.040287130000e-14
</dep>
<dep I(PR2) FREQ>
-4.920015460000e-15-j1.322213890000e-14
1.888793030000e-18-j1.506079210000e-18
-7.430801950000e-11+j9.082850550000e-11
1.298134130000e-18+j3.882274450000e-19
1.357759400000e-04-j1.720435060000e-04
1.614458080000e-20+j0.000000000000e+00
1.357759400000e-04+j1.720435060000e-04
1.298134130000e-18-j3.882274450000e-19
-7.430801950000e-11-j9.082850550000e-11
1.888793030000e-18+j1.506079210000e-18
-4.920015460000e-15+j1.322213890000e-14
</dep>
<dep V(VE) FREQ>
5.014231680000e-13+j7.989903330000e-13
-3.088423080000e-11-j2.007272370000e-11
3.383842580000e-09-j6.091285970000e-09
-1.355367230000e-06-j1.619050460000e-07
1.277526590000e-02+j7.533271930000e-03
1.042071940000e-24+j0.000000000000e+00
1.277526590000e-02-j7.533271930000e-03
-1.355367230000e-06+j1.619050460000e-07
3.383842580000e-09+j6.091285970000e-09
-3.088423080000e-11+j2.007272370000e-11
5.014231680000e-13-j7.989903330000e-13
</dep>
<dep V(VB) FREQ>
0.000000000000e+00+j0.000000000000e+00
2.018587320000e-17+j0.000000000000e+00
4.037174640000e-17+j0.000000000000e+00
4.037174640000e-17+j0.000000000000e+00
2.018587320000e-17+j0.000000000000e+00
9.700000000000e-01+j0.000000000000e+00
2.018587320000e-17+j0.000000000000e+00
4.037174640000e-17+j0.000000000000e+00
4.037174640000e-17+j0.000000000000e+00
2.018587320000e-17+j0.000000000000e+00
0.000000000000e+00+j0.000000000000e+00
</dep>
<dep V(VBASE) FREQ>
3.471780840000e-13+j7.079957450000e-13
-1.650203330000e-11-j2.270227000000e-11
4.790817950000e-09-j5.826270320000e-09
-8.674082430000e-07+j6.525413540000e-08
1.263412250000e-02+j8.046032810000e-03
9.700000000000e-01+j0.000000000000e+00
1.263412250000e-02-j8.046032810000e-03
-8.674082430000e-07-j6.525413540000e-08
4.790817950000e-09+j5.826270320000e-09
-1.650203330000e-11+j2.270227000000e-11
3.471780840000e-13-j7.079957450000e-13
</dep>
<dep V(VCC) FREQ>
0.000000000000e+00+j0.000000000000e+00
4.037174640000e-17+j0.000000000000e+00
0.000000000000e+00+j0.000000000000e+00
0.000000000000e+00+j0.000000000000e+00
4.037174640000e-17+j0.000000000000e+00
1.650000000000e+00+j0.000000000000e+00
4.037174640000e-17+j0.000000000000e+00
0.000000000000e+00+j0.000000000000e+00
0.000000000000e+00+j0.000000000000e+00
4.037174640000e-17+j0.000000000000e+00
0.000000000000e+00+j0.000000000000e+00
</dep>
<dep V(VIN_P) FREQ>
5.311411060000e-13+j5.201434880000e-13
-2.219971110000e-11-j1.288784250000e-11
1.006666050000e-09-j6.419662460000e-09
-4.544344240000e-07+j4.670623850000e-07
2.223966970000e-03+j4.113195730000e-03
3.160417280000e-19+j0.000000000000e+00
2.223966970000e-03-j4.113195730000e-03
-4.544344240000e-07-j4.670623850000e-07
1.006666050000e-09+j6.419662460000e-09
-2.219971110000e-11+j1.288784250000e-11
5.311411060000e-13-j5.201434880000e-13
</dep>
<dep V(VOUT_P) FREQ>
-1.270286410000e-13-j3.245477140000e-13
-8.427940470000e-11+j7.060004340000e-11
-1.857700430000e-09+j2.270712710000e-09
-9.758613780000e-07+j4.168713850000e-06
3.394398500000e-03+j6.989123400000e-04
1.648792690000e+00+j0.000000000000e+00
3.394398500000e-03-j6.989123400000e-04
-9.758613780000e-07-j4.168713850000e-06
-1.857700430000e-09-j2.270712710000e-09
-8.427940470000e-11-j7.060004340000e-11
-1.270286410000e-13+j3.245477140000e-13
</dep>
<indep TIME 103>
0.000000000000e+00
1.000000000000e-12
3.000000000000e-12
4.665922181834e-12
6.165252145484e-12
7.514649112770e-12
8.864046080055e-12
1.086404608006e-11
1.286404608006e-11
1.486404608006e-11
1.686404608006e-11
1.886404608006e-11
2.086404608006e-11
2.286404608006e-11
2.486404608006e-11
2.686404608006e-11
2.886404608006e-11
3.086404608006e-11
3.286404608006e-11
3.486404608006e-11
3.686404608006e-11
3.886404608006e-11
4.086404608006e-11
4.286404608006e-11
4.486404608006e-11
4.686404608006e-11
4.886404608006e-11
5.086404608006e-11
5.286404608006e-11
5.486404608006e-11
5.686404608006e-11
5.886404608006e-11
6.086404608006e-11
6.286404608006e-11
6.486404608006e-11
6.686404608006e-11
6.886404608006e-11
7.086404608006e-11
7.286404608006e-11
7.486404608006e-11
7.686404608006e-11
7.886404608006e-11
8.086404608006e-11
8.286404608006e-11
8.486404608006e-11
8.686404608006e-11
8.886404608006e-11
9.086404608006e-11
9.286404608006e-11
9.486404608006e-11
9.686404608006e-11
9.886404608006e-11
1.008640460801e-10
1.028640460801e-10
1.048640460801e-10
1.068640460801e-10
1.088640460801e-10
1.108640460801e-10
1.128640460801e-10
1.148640460801e-10
1.168640460801e-10
1.188640460801e-10
1.208640460801e-10
1.228640460801e-10
1.248640460801e-10
1.268640460801e-10
1.288640460801e-10
1.308640460801e-10
1.328640460801e-10
1.348640460801e-10
1.368640460801e-10
1.388640460801e-10
1.408640460801e-10
1.428640460801e-10
1.448640460801e-10
1.468640460801e-10
1.488640460801e-10
1.508640460801e-10
1.528640460801e-10
1.548640460801e-10
1.568640460801e-10
1.588640460801e-10
1.608640460801e-10
1.628640460801e-10
1.648640460801e-10
1.668640460801e-10
1.688640460801e-10
1.708640460801e-10
1.728640460801e-10
1.748640460801e-10
1.768640460801e-10
1.788640460801e-10
1.808640460801e-10
1.828640460801e-10
1.848640460801e-10
1.868640460801e-10
1.888640460801e-10
1.908640460801e-10
1.928640460801e-10
1.948640460801e-10
1.968640460801e-10
1.988640460801e-10
2.000000000000e-10
</indep>
<dep tran.V(COLLECTOR_VOLTAGE) TIME>
1.650000000000e+00
1.652938385257e+00
1.656581378116e+00
1.657241657540e+00
1.656082625188e+00
1.653997041698e+00
1.651074413464e+00
1.647415623037e+00
1.646033359193e+00
1.647068716449e+00
1.649896932202e+00
1.652875965188e+00
1.654594680467e+00
1.654049996857e+00
1.651442625841e+00
1.647755681595e+00
1.644615496542e+00
1.643347734014e+00
1.644644461184e+00
1.648076244567e+00
1.652423537926e+00
1.655986469195e+00
1.657376552035e+00
1.655950586024e+00
1.652196173906e+00
1.647476301611e+00
1.643594500141e+00
1.642017583725e+00
1.643375654763e+00
1.647159659788e+00
1.651972446312e+00
1.655996167933e+00
1.657719783594e+00
1.656468054212e+00
1.652714761881e+00
1.647875640673e+00
1.643802708037e+00
1.642034889203e+00
1.643241035407e+00
1.646946352663e+00
1.651748791368e+00
1.655822429224e+00
1.657625382229e+00
1.656462054945e+00
1.652779968401e+00
1.647986641762e+00
1.643926671438e+00
1.642147432402e+00
1.643324235022e+00
1.646996655286e+00
1.651769354576e+00
1.655825095044e+00
1.657621413094e+00
1.656463564987e+00
1.652793076331e+00
1.648014933167e+00
1.643967536469e+00
1.642197180697e+00
1.643376254050e+00
1.647046352360e+00
1.651812146684e+00
1.655859801363e+00
1.657647370394e+00
1.656482725043e+00
1.652806846355e+00
1.648025868244e+00
1.643976591213e+00
1.642205587625e+00
1.643383474488e+00
1.647052216161e+00
1.651815295002e+00
1.655859749243e+00
1.657643051479e+00
1.656474209390e+00
1.652793833967e+00
1.648009075638e+00
1.643956254158e+00
1.642182656120e+00
1.643358240301e+00
1.647025454212e+00
1.651787086378e+00
1.655830610001e+00
1.657612914288e+00
1.656443488950e+00
1.652762495454e+00
1.647977594244e+00
1.643924731956e+00
1.642151666890e+00
1.643327988723e+00
1.646996530986e+00
1.651759692348e+00
1.655805258345e+00
1.657589731926e+00
1.656422878588e+00
1.652744505288e+00
1.647962536477e+00
1.643912604257e+00
1.642142719337e+00
1.643322184581e+00
1.646994063196e+00
1.651760482355e+00
1.655809430320e+00
1.657111121032e+00
</dep>
<dep tran.I(PR1) TIME>
3.681619827440e-71
3.177745694336e-05
7.725264281782e-05
9.339583773082e-05
8.361428894090e-05
5.403315844222e-05
9.531936842976e-06
-7.062348860069e-05
-1.530606516447e-04
-1.971427147302e-04
-1.805198427746e-04
-9.585516075959e-05
2.982036505441e-05
1.559921202270e-04
2.334877582683e-04
2.326432510617e-04
1.484008930785e-04
9.901896251928e-06
-1.347517322757e-04
-2.317121415915e-04
-2.455317743561e-04
-1.696798180175e-04
-3.226352955320e-05
1.165911584898e-04
2.212253831275e-04
2.432149903713e-04
1.742236240922e-04
4.075717989747e-05
-1.070507538414e-04
-2.132189206057e-04
-2.381214019212e-04
-1.725982163762e-04
-4.211432470603e-05
1.036640471036e-04
2.091629638581e-04
2.345288281344e-04
1.702482389671e-04
4.119125911590e-05
-1.033087470060e-04
-2.079263221612e-04
-2.328525841538e-04
-1.686367593555e-04
-4.003545046086e-05
1.037958977657e-04
2.078226912763e-04
2.323641205904e-04
1.679965835305e-04
3.938245826771e-05
-1.043340226123e-04
-2.081366932381e-04
-2.323800375528e-04
-1.677753829305e-04
-3.906950088391e-05
1.046008568717e-04
2.083270996414e-04
2.325123780743e-04
1.678494143076e-04
3.903824755114e-05
-1.047381382681e-04
-2.084980754501e-04
-2.326167920068e-04
-1.678688674321e-04
-3.902638249558e-05
1.047309026404e-04
2.084976808102e-04
2.326678645482e-04
1.679615168266e-04
3.908624812014e-05
-1.047457622653e-04
-2.085501643338e-04
-2.326864385327e-04
-1.679391930989e-04
-3.907727495180e-05
1.047031006010e-04
2.084969609649e-04
2.326844889474e-04
1.679902105547e-04
3.911432282444e-05
-1.047221189558e-04
-2.085381538873e-04
-2.326836594785e-04
-1.679465451553e-04
-3.908839738637e-05
1.046894828939e-04
2.084867103760e-04
2.326772264266e-04
1.679889136689e-04
3.911609037575e-05
-1.047165950036e-04
-2.085327425211e-04
-2.326779391322e-04
-1.679434846969e-04
-3.908650896331e-05
1.046886861937e-04
2.084856058535e-04
2.326749984672e-04
1.679878361415e-04
3.911508955885e-05
-1.047159625223e-04
-2.085320228266e-04
-2.326760966311e-04
-1.679421321484e-04
-9.903754172682e-05
</dep>
<dep tran.I(PR2) TIME>
2.375874066070e-76
-6.049083516996e-06
-5.985362205137e-05
-1.069187232441e-04
-1.282140069025e-04
-1.190638699159e-04
-9.364560516778e-05
7.241414922057e-06
1.573393508048e-04
2.835343506114e-04
3.280797383159e-04
2.512107946081e-04
7.144410550507e-05
-1.560438056984e-04
-3.443519284260e-04
-4.220810474526e-04
-3.509319194387e-04
-1.528878709980e-04
1.051087103178e-04
3.273610173939e-04
4.324189135352e-04
3.782259322680e-04
1.843628274463e-04
-7.925183385980e-05
-3.139179299129e-04
-4.329564808469e-04
-3.911522878500e-04
-2.050864865237e-04
5.567289627343e-05
2.922245021819e-04
4.160267193409e-04
3.802832482605e-04
1.996333535959e-04
-5.727855267782e-05
-2.922332515986e-04
-4.163492602470e-04
-3.824202877389e-04
-2.041483496023e-04
5.041481194548e-05
2.837150534262e-04
4.070096744149e-04
3.731778995506e-04
1.956128143818e-04
-5.787231110415e-05
-2.901154855403e-04
-4.125528159481e-04
-3.782552418068e-04
-2.005716134107e-04
5.270887978129e-05
2.846051823738e-04
4.066416710659e-04
3.720463291843e-04
1.941893395094e-04
-5.908510690536e-05
-2.908603857801e-04
-4.126776553587e-04
-3.778557258862e-04
-1.997840476247e-04
5.363343639600e-05
2.854969954459e-04
4.073306384931e-04
