<Qucs Dataset 24.3.1>
<indep FREQ 11>
-2.500000000000e+11
-2.000000000000e+11
-1.500000000000e+11
-1.000000000000e+11
-5.000000000000e+10
0.000000000000e+00
5.000000000000e+10
1.000000000000e+11
1.500000000000e+11
2.000000000000e+11
2.500000000000e+11
</indep>
<indep B 5>
1.00000000e+00
1.07500000e+01
2.05000000e+01
3.02500000e+01
4.00000000e+01
</indep>
<dep Re(V(COLLECTOR_VOLTAGE)) FREQ B>
3.790373370000e-11+j0.000000000000e+00
-1.330351620000e-10+j0.000000000000e+00
1.731208790000e-10+j0.000000000000e+00
1.088897730000e-09+j0.000000000000e+00
5.402468110000e-09+j0.000000000000e+00
1.650000000000e+00+j0.000000000000e+00
5.402468110000e-09+j0.000000000000e+00
1.088897730000e-09+j0.000000000000e+00
1.731208790000e-10+j0.000000000000e+00
-1.330351620000e-10+j0.000000000000e+00
3.790373370000e-11+j0.000000000000e+00
3.790369930000e-11+j0.000000000000e+00
-1.330350420000e-10+j0.000000000000e+00
1.731207220000e-10+j0.000000000000e+00
1.088896740000e-09+j0.000000000000e+00
5.402463220000e-09+j0.000000000000e+00
1.650000000000e+00+j0.000000000000e+00
5.402463220000e-09+j0.000000000000e+00
1.088896740000e-09+j0.000000000000e+00
1.731207220000e-10+j0.000000000000e+00
-1.330350420000e-10+j0.000000000000e+00
3.790369930000e-11+j0.000000000000e+00
3.790369770000e-11+j0.000000000000e+00
-1.330350360000e-10+j0.000000000000e+00
1.731207150000e-10+j0.000000000000e+00
1.088896690000e-09+j0.000000000000e+00
5.402462980000e-09+j0.000000000000e+00
1.650000000000e+00+j0.000000000000e+00
5.402462980000e-09+j0.000000000000e+00
1.088896690000e-09+j0.000000000000e+00
1.731207150000e-10+j0.000000000000e+00
-1.330350360000e-10+j0.000000000000e+00
3.790369770000e-11+j0.000000000000e+00
3.790369710000e-11+j0.000000000000e+00
-1.330350340000e-10+j0.000000000000e+00
1.731207120000e-10+j0.000000000000e+00
1.088896670000e-09+j0.000000000000e+00
5.402462900000e-09+j0.000000000000e+00
1.650000000000e+00+j0.000000000000e+00
5.402462900000e-09+j0.000000000000e+00
1.088896670000e-09+j0.000000000000e+00
1.731207120000e-10+j0.000000000000e+00
-1.330350340000e-10+j0.000000000000e+00
3.790369710000e-11+j0.000000000000e+00
3.790369680000e-11+j0.000000000000e+00
-1.330350330000e-10+j0.000000000000e+00
1.731207110000e-10+j0.000000000000e+00
1.088896670000e-09+j0.000000000000e+00
5.402462850000e-09+j0.000000000000e+00
1.650000000000e+00+j0.000000000000e+00
5.402462850000e-09+j0.000000000000e+00
1.088896670000e-09+j0.000000000000e+00
1.731207110000e-10+j0.000000000000e+00
-1.330350330000e-10+j0.000000000000e+00
3.790369680000e-11+j0.000000000000e+00
</dep>
<dep Im(V(COLLECTOR_VOLTAGE)) FREQ B>
-1.402017680000e-10+j0.000000000000e+00
5.390000450000e-10+j0.000000000000e+00
3.789493960000e-10+j0.000000000000e+00
-6.544692740000e-09+j0.000000000000e+00
-3.769871580000e-08+j0.000000000000e+00
0.000000000000e+00+j0.000000000000e+00
3.769871580000e-08+j0.000000000000e+00
6.544692740000e-09+j0.000000000000e+00
-3.789493960000e-10+j0.000000000000e+00
-5.390000450000e-10+j0.000000000000e+00
1.402017680000e-10+j0.000000000000e+00
-1.402016410000e-10+j0.000000000000e+00
5.389995570000e-10+j0.000000000000e+00
3.789490530000e-10+j0.000000000000e+00
-6.544686800000e-09+j0.000000000000e+00
-3.769868170000e-08+j0.000000000000e+00
0.000000000000e+00+j0.000000000000e+00
3.769868170000e-08+j0.000000000000e+00
6.544686800000e-09+j0.000000000000e+00
-3.789490530000e-10+j0.000000000000e+00
-5.389995570000e-10+j0.000000000000e+00
1.402016410000e-10+j0.000000000000e+00
-1.402016350000e-10+j0.000000000000e+00
5.389995330000e-10+j0.000000000000e+00
3.789490360000e-10+j0.000000000000e+00
-6.544686510000e-09+j0.000000000000e+00
-3.769868000000e-08+j0.000000000000e+00
0.000000000000e+00+j0.000000000000e+00
3.769868000000e-08+j0.000000000000e+00
6.544686510000e-09+j0.000000000000e+00
-3.789490360000e-10+j0.000000000000e+00
-5.389995330000e-10+j0.000000000000e+00
1.402016350000e-10+j0.000000000000e+00
-1.402016330000e-10+j0.000000000000e+00
5.389995240000e-10+j0.000000000000e+00
3.789490300000e-10+j0.000000000000e+00
-6.544686410000e-09+j0.000000000000e+00
-3.769867940000e-08+j0.000000000000e+00
0.000000000000e+00+j0.000000000000e+00
3.769867940000e-08+j0.000000000000e+00
6.544686410000e-09+j0.000000000000e+00
-3.789490300000e-10+j0.000000000000e+00
-5.389995240000e-10+j0.000000000000e+00
1.402016330000e-10+j0.000000000000e+00
-1.402016310000e-10+j0.000000000000e+00
5.389995200000e-10+j0.000000000000e+00
3.789490270000e-10+j0.000000000000e+00
-6.544686360000e-09+j0.000000000000e+00
-3.769867910000e-08+j0.000000000000e+00
0.000000000000e+00+j0.000000000000e+00
3.769867910000e-08+j0.000000000000e+00
6.544686360000e-09+j0.000000000000e+00
-3.789490270000e-10+j0.000000000000e+00
-5.389995200000e-10+j0.000000000000e+00
1.402016310000e-10+j0.000000000000e+00
</dep>
<dep Re(I(VPR1)) FREQ B>
2.202282020000e-04+j0.000000000000e+00
-6.773267560000e-04+j0.000000000000e+00
-3.571510350000e-04+j0.000000000000e+00
4.112147610000e-03+j0.000000000000e+00
1.184338900000e-02+j0.000000000000e+00
1.554318580000e-02+j0.000000000000e+00
1.184338900000e-02+j0.000000000000e+00
4.112147610000e-03+j0.000000000000e+00
-3.571510350000e-04+j0.000000000000e+00
-6.773267560000e-04+j0.000000000000e+00
2.202282020000e-04+j0.000000000000e+00
2.202282020000e-04+j0.000000000000e+00
-6.773267560000e-04+j0.000000000000e+00
-3.571510350000e-04+j0.000000000000e+00
4.112147610000e-03+j0.000000000000e+00
1.184338900000e-02+j0.000000000000e+00
1.554318580000e-02+j0.000000000000e+00
1.184338900000e-02+j0.000000000000e+00
4.112147610000e-03+j0.000000000000e+00
-3.571510350000e-04+j0.000000000000e+00
-6.773267560000e-04+j0.000000000000e+00
2.202282020000e-04+j0.000000000000e+00
2.202282020000e-04+j0.000000000000e+00
-6.773267560000e-04+j0.000000000000e+00
-3.571510350000e-04+j0.000000000000e+00
4.112147610000e-03+j0.000000000000e+00
1.184338900000e-02+j0.000000000000e+00
1.554318580000e-02+j0.000000000000e+00
1.184338900000e-02+j0.000000000000e+00
4.112147610000e-03+j0.000000000000e+00
-3.571510350000e-04+j0.000000000000e+00
-6.773267560000e-04+j0.000000000000e+00
2.202282020000e-04+j0.000000000000e+00
2.202282020000e-04+j0.000000000000e+00
-6.773267560000e-04+j0.000000000000e+00
-3.571510350000e-04+j0.000000000000e+00
4.112147610000e-03+j0.000000000000e+00
1.184338900000e-02+j0.000000000000e+00
1.554318580000e-02+j0.000000000000e+00
1.184338900000e-02+j0.000000000000e+00
4.112147610000e-03+j0.000000000000e+00
-3.571510350000e-04+j0.000000000000e+00
-6.773267560000e-04+j0.000000000000e+00
2.202282020000e-04+j0.000000000000e+00
2.202282020000e-04+j0.000000000000e+00
-6.773267560000e-04+j0.000000000000e+00
-3.571510350000e-04+j0.000000000000e+00
4.112147610000e-03+j0.000000000000e+00
1.184338900000e-02+j0.000000000000e+00
1.554318580000e-02+j0.000000000000e+00
1.184338900000e-02+j0.000000000000e+00
4.112147610000e-03+j0.000000000000e+00
-3.571510350000e-04+j0.000000000000e+00
-6.773267560000e-04+j0.000000000000e+00
2.202282020000e-04+j0.000000000000e+00
</dep>
<dep Im(I(VPR1)) FREQ B>
5.953898620000e-05+j0.000000000000e+00
-1.671767480000e-04+j0.000000000000e+00
1.631624220000e-04+j0.000000000000e+00
6.841739360000e-04+j0.000000000000e+00
1.697233720000e-03+j0.000000000000e+00
0.000000000000e+00+j0.000000000000e+00
-1.697233720000e-03+j0.000000000000e+00
-6.841739360000e-04+j0.000000000000e+00
-1.631624220000e-04+j0.000000000000e+00
1.671767480000e-04+j0.000000000000e+00
-5.953898620000e-05+j0.000000000000e+00
5.953898620000e-05+j0.000000000000e+00
-1.671767480000e-04+j0.000000000000e+00
1.631624220000e-04+j0.000000000000e+00
6.841739360000e-04+j0.000000000000e+00
1.697233720000e-03+j0.000000000000e+00
0.000000000000e+00+j0.000000000000e+00
-1.697233720000e-03+j0.000000000000e+00
-6.841739360000e-04+j0.000000000000e+00
-1.631624220000e-04+j0.000000000000e+00
1.671767480000e-04+j0.000000000000e+00
-5.953898620000e-05+j0.000000000000e+00
5.953898620000e-05+j0.000000000000e+00
-1.671767480000e-04+j0.000000000000e+00
1.631624220000e-04+j0.000000000000e+00
6.841739360000e-04+j0.000000000000e+00
1.697233720000e-03+j0.000000000000e+00
0.000000000000e+00+j0.000000000000e+00
-1.697233720000e-03+j0.000000000000e+00
-6.841739360000e-04+j0.000000000000e+00
-1.631624220000e-04+j0.000000000000e+00
1.671767480000e-04+j0.000000000000e+00
-5.953898620000e-05+j0.000000000000e+00
5.953898620000e-05+j0.000000000000e+00
-1.671767480000e-04+j0.000000000000e+00
1.631624220000e-04+j0.000000000000e+00
6.841739360000e-04+j0.000000000000e+00
1.697233720000e-03+j0.000000000000e+00
0.000000000000e+00+j0.000000000000e+00
-1.697233720000e-03+j0.000000000000e+00
-6.841739360000e-04+j0.000000000000e+00
-1.631624220000e-04+j0.000000000000e+00
1.671767480000e-04+j0.000000000000e+00
-5.953898620000e-05+j0.000000000000e+00
5.953898620000e-05+j0.000000000000e+00
-1.671767480000e-04+j0.000000000000e+00
1.631624220000e-04+j0.000000000000e+00
6.841739360000e-04+j0.000000000000e+00
1.697233720000e-03+j0.000000000000e+00
0.000000000000e+00+j0.000000000000e+00
-1.697233720000e-03+j0.000000000000e+00
-6.841739360000e-04+j0.000000000000e+00
-1.631624220000e-04+j0.000000000000e+00
1.671767480000e-04+j0.000000000000e+00
-5.953898620000e-05+j0.000000000000e+00
</dep>
<dep Re(I(VPR2)) FREQ B>
1.818778110000e-05+j0.000000000000e+00
-2.769155200000e-05+j0.000000000000e+00
8.992020960000e-06+j0.000000000000e+00
4.582362330000e-05+j0.000000000000e+00
1.527729680000e-03+j0.000000000000e+00
2.394891870000e-19+j0.000000000000e+00
1.527729680000e-03+j0.000000000000e+00
4.582362330000e-05+j0.000000000000e+00
8.992020960000e-06+j0.000000000000e+00
-2.769155200000e-05+j0.000000000000e+00
1.818778110000e-05+j0.000000000000e+00
1.818778110000e-05+j0.000000000000e+00
-2.769155200000e-05+j0.000000000000e+00
8.992020960000e-06+j0.000000000000e+00
4.582362330000e-05+j0.000000000000e+00
1.527729680000e-03+j0.000000000000e+00
6.449269770000e-20+j0.000000000000e+00
1.527729680000e-03+j0.000000000000e+00
4.582362330000e-05+j0.000000000000e+00
8.992020960000e-06+j0.000000000000e+00
-2.769155200000e-05+j0.000000000000e+00
1.818778110000e-05+j0.000000000000e+00
1.818778110000e-05+j0.000000000000e+00
-2.769155200000e-05+j0.000000000000e+00
8.992020960000e-06+j0.000000000000e+00
4.582362330000e-05+j0.000000000000e+00
1.527729680000e-03+j0.000000000000e+00
3.379833370000e-19+j0.000000000000e+00
1.527729680000e-03+j0.000000000000e+00
4.582362330000e-05+j0.000000000000e+00
8.992020960000e-06+j0.000000000000e+00
-2.769155200000e-05+j0.000000000000e+00
1.818778110000e-05+j0.000000000000e+00
1.818778110000e-05+j0.000000000000e+00
-2.769155200000e-05+j0.000000000000e+00
8.992020960000e-06+j0.000000000000e+00
4.582362330000e-05+j0.000000000000e+00
1.527729680000e-03+j0.000000000000e+00
9.737780540000e-21+j0.000000000000e+00
1.527729680000e-03+j0.000000000000e+00
4.582362330000e-05+j0.000000000000e+00
8.992020960000e-06+j0.000000000000e+00
-2.769155200000e-05+j0.000000000000e+00
1.818778110000e-05+j0.000000000000e+00
1.818778110000e-05+j0.000000000000e+00
-2.769155200000e-05+j0.000000000000e+00
8.992020960000e-06+j0.000000000000e+00
4.582362330000e-05+j0.000000000000e+00
1.527729680000e-03+j0.000000000000e+00
8.140438880000e-20+j0.000000000000e+00
1.527729680000e-03+j0.000000000000e+00
4.582362330000e-05+j0.000000000000e+00
8.992020960000e-06+j0.000000000000e+00
-2.769155200000e-05+j0.000000000000e+00
1.818778110000e-05+j0.000000000000e+00
</dep>
<dep Im(I(VPR2)) FREQ B>
-9.839750200000e-06+j0.000000000000e+00
4.002851730000e-05+j0.000000000000e+00
1.937058850000e-05+j0.000000000000e+00
-3.806259050000e-04+j0.000000000000e+00
4.142630820000e-03+j0.000000000000e+00
0.000000000000e+00+j0.000000000000e+00
-4.142630820000e-03+j0.000000000000e+00
3.806259050000e-04+j0.000000000000e+00
-1.937058850000e-05+j0.000000000000e+00
-4.002851730000e-05+j0.000000000000e+00
9.839750200000e-06+j0.000000000000e+00
-9.839750200000e-06+j0.000000000000e+00
4.002851730000e-05+j0.000000000000e+00
1.937058850000e-05+j0.000000000000e+00
-3.806259050000e-04+j0.000000000000e+00
4.142630820000e-03+j0.000000000000e+00
0.000000000000e+00+j0.000000000000e+00
-4.142630820000e-03+j0.000000000000e+00
3.806259050000e-04+j0.000000000000e+00
-1.937058850000e-05+j0.000000000000e+00
-4.002851730000e-05+j0.000000000000e+00
9.839750200000e-06+j0.000000000000e+00
-9.839750200000e-06+j0.000000000000e+00
4.002851730000e-05+j0.000000000000e+00
1.937058850000e-05+j0.000000000000e+00
-3.806259050000e-04+j0.000000000000e+00
4.142630820000e-03+j0.000000000000e+00
0.000000000000e+00+j0.000000000000e+00
-4.142630820000e-03+j0.000000000000e+00
3.806259050000e-04+j0.000000000000e+00
-1.937058850000e-05+j0.000000000000e+00
-4.002851730000e-05+j0.000000000000e+00
9.839750200000e-06+j0.000000000000e+00
-9.839750200000e-06+j0.000000000000e+00
4.002851730000e-05+j0.000000000000e+00
1.937058850000e-05+j0.000000000000e+00
-3.806259050000e-04+j0.000000000000e+00
4.142630820000e-03+j0.000000000000e+00
0.000000000000e+00+j0.000000000000e+00
-4.142630820000e-03+j0.000000000000e+00
3.806259050000e-04+j0.000000000000e+00
-1.937058850000e-05+j0.000000000000e+00
-4.002851730000e-05+j0.000000000000e+00
9.839750200000e-06+j0.000000000000e+00
-9.839750200000e-06+j0.000000000000e+00
4.002851730000e-05+j0.000000000000e+00
1.937058850000e-05+j0.000000000000e+00
-3.806259050000e-04+j0.000000000000e+00
4.142630820000e-03+j0.000000000000e+00
0.000000000000e+00+j0.000000000000e+00
-4.142630820000e-03+j0.000000000000e+00
3.806259050000e-04+j0.000000000000e+00
-1.937058850000e-05+j0.000000000000e+00
-4.002851730000e-05+j0.000000000000e+00
9.839750200000e-06+j0.000000000000e+00
</dep>
<dep Re(I(VPR3)) FREQ B>
-2.202282020000e-04+j0.000000000000e+00
6.773267560000e-04+j0.000000000000e+00
3.571510350000e-04+j0.000000000000e+00
-4.112147610000e-03+j0.000000000000e+00
-1.184338900000e-02+j0.000000000000e+00
-1.406156810000e-18+j0.000000000000e+00
-1.184338900000e-02+j0.000000000000e+00
-4.112147610000e-03+j0.000000000000e+00
3.571510350000e-04+j0.000000000000e+00
6.773267560000e-04+j0.000000000000e+00
-2.202282020000e-04+j0.000000000000e+00
-2.202282020000e-04+j0.000000000000e+00
6.773267560000e-04+j0.000000000000e+00
3.571510350000e-04+j0.000000000000e+00
-4.112147610000e-03+j0.000000000000e+00
-1.184338900000e-02+j0.000000000000e+00
-5.277700600000e-19+j0.000000000000e+00
-1.184338900000e-02+j0.000000000000e+00
-4.112147610000e-03+j0.000000000000e+00
3.571510350000e-04+j0.000000000000e+00
6.773267560000e-04+j0.000000000000e+00
-2.202282020000e-04+j0.000000000000e+00
-2.202282020000e-04+j0.000000000000e+00
6.773267560000e-04+j0.000000000000e+00
3.571510350000e-04+j0.000000000000e+00
-4.112147610000e-03+j0.000000000000e+00
-1.184338900000e-02+j0.000000000000e+00
3.066558980000e-19+j0.000000000000e+00
-1.184338900000e-02+j0.000000000000e+00
-4.112147610000e-03+j0.000000000000e+00
3.571510350000e-04+j0.000000000000e+00
6.773267560000e-04+j0.000000000000e+00
-2.202282020000e-04+j0.000000000000e+00
-2.202282020000e-04+j0.000000000000e+00
6.773267560000e-04+j0.000000000000e+00
3.571510350000e-04+j0.000000000000e+00
-4.112147610000e-03+j0.000000000000e+00
-1.184338900000e-02+j0.000000000000e+00
6.341865740000e-19+j0.000000000000e+00
-1.184338900000e-02+j0.000000000000e+00
-4.112147610000e-03+j0.000000000000e+00
3.571510350000e-04+j0.000000000000e+00
6.773267560000e-04+j0.000000000000e+00
-2.202282020000e-04+j0.000000000000e+00
-2.202282020000e-04+j0.000000000000e+00
6.773267560000e-04+j0.000000000000e+00
3.571510350000e-04+j0.000000000000e+00
-4.112147610000e-03+j0.000000000000e+00
-1.184338900000e-02+j0.000000000000e+00
-5.250800180000e-19+j0.000000000000e+00
-1.184338900000e-02+j0.000000000000e+00
-4.112147610000e-03+j0.000000000000e+00
3.571510350000e-04+j0.000000000000e+00
6.773267560000e-04+j0.000000000000e+00
-2.202282020000e-04+j0.000000000000e+00
</dep>
<dep Im(I(VPR3)) FREQ B>
-5.953898620000e-05+j0.000000000000e+00
1.671767480000e-04+j0.000000000000e+00
-1.631624220000e-04+j0.000000000000e+00
-6.841739360000e-04+j0.000000000000e+00
-1.697233720000e-03+j0.000000000000e+00
0.000000000000e+00+j0.000000000000e+00
1.697233720000e-03+j0.000000000000e+00
6.841739360000e-04+j0.000000000000e+00
1.631624220000e-04+j0.000000000000e+00
-1.671767480000e-04+j0.000000000000e+00
5.953898620000e-05+j0.000000000000e+00
-5.953898620000e-05+j0.000000000000e+00
1.671767480000e-04+j0.000000000000e+00
-1.631624220000e-04+j0.000000000000e+00
-6.841739360000e-04+j0.000000000000e+00
-1.697233720000e-03+j0.000000000000e+00
0.000000000000e+00+j0.000000000000e+00
1.697233720000e-03+j0.000000000000e+00
6.841739360000e-04+j0.000000000000e+00
1.631624220000e-04+j0.000000000000e+00
-1.671767480000e-04+j0.000000000000e+00
5.953898620000e-05+j0.000000000000e+00
-5.953898620000e-05+j0.000000000000e+00
1.671767480000e-04+j0.000000000000e+00
-1.631624220000e-04+j0.000000000000e+00
-6.841739360000e-04+j0.000000000000e+00
-1.697233720000e-03+j0.000000000000e+00
0.000000000000e+00+j0.000000000000e+00
1.697233720000e-03+j0.000000000000e+00
6.841739360000e-04+j0.000000000000e+00
1.631624220000e-04+j0.000000000000e+00
-1.671767480000e-04+j0.000000000000e+00
5.953898620000e-05+j0.000000000000e+00
-5.953898620000e-05+j0.000000000000e+00
1.671767480000e-04+j0.000000000000e+00
-1.631624220000e-04+j0.000000000000e+00
-6.841739360000e-04+j0.000000000000e+00
-1.697233720000e-03+j0.000000000000e+00
0.000000000000e+00+j0.000000000000e+00
1.697233720000e-03+j0.000000000000e+00
6.841739360000e-04+j0.000000000000e+00
1.631624220000e-04+j0.000000000000e+00
-1.671767480000e-04+j0.000000000000e+00
5.953898620000e-05+j0.000000000000e+00
-5.953898620000e-05+j0.000000000000e+00
1.671767480000e-04+j0.000000000000e+00
-1.631624220000e-04+j0.000000000000e+00
-6.841739360000e-04+j0.000000000000e+00
-1.697233720000e-03+j0.000000000000e+00
0.000000000000e+00+j0.000000000000e+00
1.697233720000e-03+j0.000000000000e+00
6.841739360000e-04+j0.000000000000e+00
1.631624220000e-04+j0.000000000000e+00
-1.671767480000e-04+j0.000000000000e+00
5.953898620000e-05+j0.000000000000e+00
</dep>
<dep Re(V(VCC)) FREQ B>
0.000000000000e+00+j0.000000000000e+00
4.037174640000e-17+j0.000000000000e+00
0.000000000000e+00+j0.000000000000e+00
0.000000000000e+00+j0.000000000000e+00
4.037174640000e-17+j0.000000000000e+00
1.650000000000e+00+j0.000000000000e+00
4.037174640000e-17+j0.000000000000e+00
0.000000000000e+00+j0.000000000000e+00
0.000000000000e+00+j0.000000000000e+00
4.037174640000e-17+j0.000000000000e+00
0.000000000000e+00+j0.000000000000e+00
0.000000000000e+00+j0.000000000000e+00
4.037174640000e-17+j0.000000000000e+00
0.000000000000e+00+j0.000000000000e+00
0.000000000000e+00+j0.000000000000e+00
4.037174640000e-17+j0.000000000000e+00
1.650000000000e+00+j0.000000000000e+00
4.037174640000e-17+j0.000000000000e+00
0.000000000000e+00+j0.000000000000e+00
0.000000000000e+00+j0.000000000000e+00
4.037174640000e-17+j0.000000000000e+00
0.000000000000e+00+j0.000000000000e+00
0.000000000000e+00+j0.000000000000e+00
4.037174640000e-17+j0.000000000000e+00
0.000000000000e+00+j0.000000000000e+00
0.000000000000e+00+j0.000000000000e+00
4.037174640000e-17+j0.000000000000e+00
1.650000000000e+00+j0.000000000000e+00
4.037174640000e-17+j0.000000000000e+00
0.000000000000e+00+j0.000000000000e+00
0.000000000000e+00+j0.000000000000e+00
4.037174640000e-17+j0.000000000000e+00
0.000000000000e+00+j0.000000000000e+00
0.000000000000e+00+j0.000000000000e+00
4.037174640000e-17+j0.000000000000e+00
0.000000000000e+00+j0.000000000000e+00
0.000000000000e+00+j0.000000000000e+00
4.037174640000e-17+j0.000000000000e+00
1.650000000000e+00+j0.000000000000e+00
4.037174640000e-17+j0.000000000000e+00
0.000000000000e+00+j0.000000000000e+00
0.000000000000e+00+j0.000000000000e+00
4.037174640000e-17+j0.000000000000e+00
0.000000000000e+00+j0.000000000000e+00
0.000000000000e+00+j0.000000000000e+00
4.037174640000e-17+j0.000000000000e+00
0.000000000000e+00+j0.000000000000e+00
0.000000000000e+00+j0.000000000000e+00
4.037174640000e-17+j0.000000000000e+00
1.650000000000e+00+j0.000000000000e+00
4.037174640000e-17+j0.000000000000e+00
