#   Hz   S  RI   R   50
!
0.000000e+00 9.968967e-01 0.000000e+00 8.748740e-04 0.000000e+00 4.291195e-07 0.000000e+00 -6.804322e-07 0.000000e+00 8.742767e-04 0.000000e+00 9.968879e-01 0.000000e+00 -7.966883e-07 0.000000e+00 9.109047e-07 0.000000e+00 1.242576e-06 0.000000e+00 -1.437207e-07 0.000000e+00 -9.981302e-01 0.000000e+00 9.883714e-05 0.000000e+00 -2.888859e-08 0.000000e+00 9.498985e-07 0.000000e+00 1.071479e-04 0.000000e+00 -9.982125e-01 0.000000e+00
8.750000e+08 9.968590e-01 -7.916404e-03 8.816442e-04 7.000515e-04 4.510405e-07 6.116857e-07 -6.868877e-07 -1.213964e-07 8.810378e-04 7.000724e-04 9.968514e-01 -7.769066e-03 -8.030827e-07 -1.137557e-07 9.309448e-07 5.334928e-07 1.264533e-06 1.763821e-07 -1.506702e-07 -1.121170e-07 -9.981301e-01 3.319538e-05 9.881953e-05 -1.261942e-06 -3.601445e-08 -1.292923e-07 9.675344e-07 2.182740e-07 1.071278e-04 -1.416519e-06 -9.982124e-01 3.471503e-05
1.750000e+09 9.967461e-01 -1.583078e-02 9.019354e-04 1.399648e-03 5.167914e-07 1.222538e-06 -7.062483e-07 -2.424308e-07 9.013018e-04 1.399690e-03 9.967420e-01 -1.553614e-02 -8.222607e-07 -2.271727e-07 9.910514e-07 1.066160e-06 1.330323e-06 3.508666e-07 -1.714980e-07 -2.236434e-07 -9.981299e-01 6.638764e-05 9.876673e-05 -2.522244e-06 -5.736910e-08 -2.579727e-07 1.020375e-06 4.349466e-07 1.070675e-04 -2.831118e-06 -9.982122e-01 6.942465e-05
2.625000e+09 9.965581e-01 -2.374114e-02 9.356896e-04 2.098338e-03 6.263355e-07 1.831724e-06 -7.384964e-07 -3.627417e-07 9.350107e-04 2.098404e-03 9.965600e-01 -2.329928e-02 -8.542066e-07 -3.399126e-07 1.091183e-06 1.597178e-06 1.439707e-06 5.215739e-07 -2.061421e-07 -3.339925e-07 -9.981295e-01 9.957367e-05 9.867888e-05 -3.779269e-06 -9.288406e-08 -3.854340e-07 1.108217e-06 6.484314e-07 1.069671e-04 -4.241883e-06 -9.982117e-01 1.041235e-04
3.500000e+09 9.962957e-01 -3.164553e-02 9.828114e-04 2.795680e-03 7.796120e-07 2.438415e-06 -7.836030e-07 -4.819692e-07 9.820692e-04 2.795774e-03 9.963059e-01 -3.105655e-02 -8.988942e-07 -4.516385e-07 1.231271e-06 2.125726e-06 1.592289e-06 6.866606e-07 -2.545003e-07 -4.425868e-07 -9.981290e-01 1.327504e-04 9.855614e-05 -5.031396e-06 -1.424462e-07 -5.110783e-07 1.230729e-06 8.571719e-07 1.068269e-04 -5.646916e-06 -9.982111e-01 1.388061e-04
4.375000e+09 9.959595e-01 -3.954208e-02 1.043169e-03 3.491248e-03 9.765360e-07 3.041784e-06 -8.415273e-07 -5.997556e-07 1.042346e-03 3.491372e-03 9.959803e-01 -3.880612e-02 -9.562872e-07 -5.620151e-07 1.411220e-06 2.650987e-06 1.787523e-06 8.443362e-07 -3.164310e-07 -5.488609e-07 -9.981284e-01 1.659147e-04 9.839881e-05 -6.277023e-06 -2.058990e-07 -6.343215e-07 1.387450e-06 1.059656e-06 1.066472e-04 -7.044345e-06 -9.982102e-01 1.734673e-04
5.250000e+09 9.955502e-01 -4.742900e-02 1.116598e-03 4.184630e-03 1.216999e-06 3.641008e-06 -9.122175e-07 -7.157459e-07 1.115676e-03 4.184789e-03 9.955841e-01 -4.654625e-02 -1.026339e-06 -6.707094e-07 1.630908e-06 3.172150e-06 2.024722e-06 9.928796e-07 -3.917557e-07 -6.522665e-07 -9.981277e-01 1.990635e-04 9.820721e-05 -7.514574e-06 -2.830449e-07 -7.545976e-07 1.577799e-06 1.254430e-06 1.064285e-04 -8.432324e-06 -9.982092e-01 2.081018e-04
6.125000e+09 9.950689e-01 -5.530464e-02 1.202901e-03 4.875440e-03 1.500869e-06 4.235272e-06 -9.956103e-07 -8.295886e-07 1.201863e-03 4.875640e-03 9.951182e-01 -5.427530e-02 -1.108992e-06 -7.773911e-07 1.890185e-06 3.688411e-06 2.303066e-06 1.130654e-06 -4.802604e-07 -7.522751e-07 -9.981268e-01 2.321939e-04 9.798176e-05 -8.742503e-06 -3.736475e-07 -8.713624e-07 1.801084e-06 1.440108e-06 1.061711e-04 -9.809048e-06 -9.982080e-01 2.427045e-04
7.000000e+09 9.945167e-01 -6.316747e-02 1.301854e-03 5.563314e-03 1.827992e-06 4.823767e-06 -1.091632e-06 -9.409363e-07 1.300682e-03 5.563561e-03 9.945836e-01 -6.199179e-02 -1.204182e-06 -8.817335e-07 2.188879e-06 4.198974e-06 2.621613e-06 1.256120e-06 -5.816991e-07 -8.483818e-07 -9.981257e-01 2.653029e-04 9.772295e-05 -9.959303e-06 -4.774343e-07 -9.840971e-07 2.056510e-06 1.615389e-06 1.058757e-04 -1.117276e-05 -9.982067e-01 2.772703e-04
7.875000e+09 9.938948e-01 -7.101610e-02 1.413207e-03 6.247917e-03 2.198190e-06 5.405691e-06 -1.200198e-06 -1.049447e-06 1.411884e-03 6.248219e-03 9.939817e-01 -6.969435e-02 -1.311830e-06 -9.834135e-07 2.526790e-06 4.703054e-06 2.979314e-06 1.367847e-06 -6.957962e-07 -9.401081e-07 -9.981246e-01 2.983876e-04 9.743132e-05 -1.116351e-05 -5.941004e-07 -1.092312e-06 2.343190e-06 1.779062e-06 1.055429e-04 -1.252174e-05 -9.982051e-01 3.117943e-04
8.750000e+09 9.932045e-01 -7.884931e-02 1.536692e-03 6.928945e-03 2.611266e-06 5.980252e-06 -1.321213e-06 -1.154782e-06 1.535201e-03 6.929310e-03 9.933137e-01 -7.738180e-02 -1.431853e-06 -1.082113e-06 2.903696e-06 5.199874e-06 3.375029e-06 1.464525e-06 -8.222497e-07 -1.027004e-06 -9.981233e-01 3.314450e-04 9.710749e-05 -1.235370e-05 -7.233118e-07 -1.195547e-06 2.660158e-06 1.930014e-06 1.051734e-04 -1.385434e-05 -9.982034e-01 3.462718e-04
9.625000e+09 9.924472e-01 -8.666607e-02 1.672020e-03 7.606124e-03 3.067001e-06 6.546665e-06 -1.454572e-06 -1.256611e-06 1.670345e-03 7.606562e-03 9.925811e-01 -8.505311e-02 -1.564156e-06 -1.177517e-06 3.319352e-06 5.688671e-06 3.807536e-06 1.544971e-06 -9.607353e-07 -1.108651e-06 -9.981218e-01 3.644725e-04 9.675214e-05 -1.352852e-05 -8.647094e-07 -1.293379e-06 3.006378e-06 2.067242e-06 1.047681e-04 -1.516897e-05 -9.982015e-01 3.806980e-04
1.050000e+10 9.916243e-01 -9.446548e-02 1.818894e-03 8.279217e-03 3.565155e-06 7.104158e-06 -1.600162e-06 -1.354609e-06 1.817019e-03 8.279737e-03 9.917851e-01 -9.270744e-02 -1.708636e-06 -1.269317e-06 3.773490e-06 6.168694e-06 4.275554e-06 1.608132e-06 -1.110909e-06 -1.184662e-06 -9.981203e-01 3.974672e-04 9.636599e-05 -1.468666e-05 -1.017913e-06 -1.385415e-06 3.380762e-06 2.189851e-06 1.043278e-04 -1.646411e-05 -9.981995e-01 4.150686e-04
1.137500e+10 9.907374e-01 -1.022469e-01 1.977006e-03 8.948017e-03 4.105469e-06 7.651970e-06 -1.757859e-06 -1.448457e-06 1.974915e-03 8.948630e-03 9.909274e-01 -1.003441e-01 -1.865181e-06 -1.357211e-06 4.265822e-06 6.639207e-06 4.777755e-06 1.653096e-06 -1.272413e-06 -1.254684e-06 -9.981186e-01 4.304266e-04 9.594982e-05 -1.582687e-05 -1.182525e-06 -1.471304e-06 3.782180e-06 2.297064e-06 1.038534e-04 -1.773830e-05 -9.981972e-01 4.493791e-04
1.225000e+10 9.897879e-01 -1.100097e-01 2.146047e-03 9.612355e-03 4.687668e-06 8.189352e-06 -1.927530e-06 -1.537844e-06 2.143724e-03 9.613073e-03 9.900092e-01 -1.079626e-01 -2.033673e-06 -1.440902e-06 4.796039e-06 7.099485e-06 5.312781e-06 1.679085e-06 -1.444876e-06 -1.318397e-06 -9.981167e-01 4.633479e-04 9.550448e-05 -1.694797e-05 -1.358135e-06 -1.550726e-06 4.209474e-06 2.388218e-06 1.033460e-04 -1.899017e-05 -9.981949e-01 4.836255e-04
1.312500e+10 9.887772e-01 -1.177536e-01 2.325704e-03 1.027209e-02 5.311457e-06 8.715565e-06 -2.109036e-06 -1.622468e-06 2.323135e-03 1.027293e-02 9.890322e-01 -1.155627e-01 -2.213983e-06 -1.520097e-06 5.363815e-06 7.548823e-06 5.879261e-06 1.685460e-06 -1.627919e-06 -1.375516e-06 -9.981148e-01 4.962288e-04 9.503083e-05 -1.804884e-05 -1.544323e-06 -1.623404e-06 4.661474e-06 2.462767e-06 1.028065e-04 -2.021844e-05 -9.981923e-01 5.178038e-04
1.400000e+10 9.877067e-01 -1.254785e-01 2.515673e-03 1.092713e-02 5.976525e-06 9.229886e-06 -2.302228e-06 -1.702032e-06 2.512843e-03 1.092809e-02 9.879976e-01 -1.231441e-01 -2.405979e-06 -1.594513e-06 5.968804e-06 7.986528e-06 6.475826e-06 1.671718e-06 -1.821160e-06 -1.425790e-06 -9.981127e-01 5.290667e-04 9.452979e-05 -1.912844e-05 -1.740667e-06 -1.689093e-06 5.137006e-06 2.520280e-06 1.022360e-04 -2.142187e-05 -9.981896e-01 5.519103e-04
1.487500e+10 9.865778e-01 -1.331843e-01 2.715655e-03 1.157738e-02 6.682546e-06 9.731605e-06 -2.506950e-06 -1.776249e-06 2.712550e-03 1.157850e-02 9.869068e-01 -1.307069e-01 -2.609518e-06 -1.663873e-06 6.610647e-06 8.411925e-06 7.101124e-06 1.637485e-06 -2.024214e-06 -1.469000e-06 -9.981105e-01 5.618594e-04 9.400232e-05 -2.018579e-05 -1.946741e-06 -1.747586e-06 5.634908e-06 2.560438e-06 1.016357e-04 -2.259936e-05 -9.981867e-01 5.859413e-04
1.575000e+10 9.853918e-01 -1.408711e-01 2.925365e-03 1.222282e-02 7.429180e-06 1.022002e-05 -2.723041e-06 -1.844842e-06 2.921971e-03 1.222409e-02 9.857610e-01 -1.382511e-01 -2.824454e-06 -1.727905e-06 7.288966e-06 8.824356e-06 7.753834e-06 1.582514e-06 -2.236701e-06 -1.504960e-06 -9.981081e-01 5.946045e-04 9.344938e-05 -2.122000e-05 -2.162122e-06 -1.798712e-06 6.154043e-06 2.583027e-06 1.010068e-04 -2.374986e-05 -9.981837e-01 6.198937e-04
1.662500e+10 9.841498e-01 -1.485392e-01 3.144531e-03 1.286342e-02 8.216071e-06 1.069446e-05 -2.950331e-06 -1.907538e-06 3.140835e-03 1.286487e-02 9.845615e-01 -1.457772e-01 -3.050633e-06 -1.786345e-06 8.003372e-06 9.223180e-06 8.432678e-06 1.506673e-06 -2.458244e-06 -1.533514e-06 -9.981057e-01 6.272999e-04 9.287200e-05 -2.223022e-05 -2.386394e-06 -1.842331e-06 6.693305e-06 2.587937e-06 1.003503e-04 -2.487241e-05 -9.981806e-01 6.537641e-04
1.750000e+10 9.828528e-01 -1.561890e-01 3.372899e-03 1.349920e-02 9.042853e-06 1.115425e-05 -3.188647e-06 -1.964078e-06 3.368888e-03 1.350083e-02 9.833092e-01 -1.532854e-01 -3.287895e-06 -1.838938e-06 8.753462e-06 9.607773e-06 9.136433e-06 1.409941e-06 -2.688474e-06 -1.554535e-06 -9.981031e-01 6.599435e-04 9.227120e-05 -2.321572e-05 -2.619149e-06 -1.878335e-06 7.251632e-06 2.575151e-06 9.966762e-05 -2.596617e-05 -9.981773e-01 6.875498e-04
1.837500e+10 9.815019e-01 -1.638209e-01 3.610236e-03 1.413017e-02 9.909147e-06 1.159874e-05 -3.437807e-06 -2.014208e-06 3.605898e-03 1.413201e-02 9.820051e-01 -1.607762e-01 -3.536076e-06 -1.885435e-06 9.538823e-06 9.977529e-06 9.863942e-06 1.292396e-06 -2.927034e-06 -1.567922e-06 -9.981004e-01 6.925334e-04 9.164803e-05 -2.417582e-05 -2.859992e-06 -1.906648e-06 7.828014e-06 2.544736e-06 9.895987e-05 -2.703034e-05 -9.981738e-01 7.212479e-04
1.925000e+10 9.800977e-01 -1.714355e-01 3.856330e-03 1.475639e-02 1.081456e-05 1.202728e-05 -3.697627e-06 -2.057686e-06 3.851653e-03 1.475846e-02 9.806499e-01 -1.682502e-01 -3.795007e-06 -1.925594e-06 1.035903e-05 1.033186e-05 1.061412e-05 1.154204e-06 -3.173578e-06 -1.573600e-06 -9.980976e-01 7.250676e-04 9.100355e-05 -2.510990e-05 -3.108540e-06 -1.927217e-06 8.421502e-06 2.496843e-06 9.822833e-05 -2.806425e-05 -9.981702e-01 7.548560e-04
2.012500e+10 9.786410e-01 -1.790334e-01 4.110992e-03 1.537792e-02 1.175870e-05 1.243926e-05 -3.967918e-06 -2.094276e-06 4.105966e-03 1.538024e-02 9.792444e-01 -1.757081e-01 -4.064514e-06 -1.959181e-06 1.121365e-05 1.067019e-05 1.138597e-05 9.956069e-07 -3.427774e-06 -1.571516e-06 -9.980947e-01 7.575442e-04 9.033883e-05 -2.601744e-05 -3.364428e-06 -1.940016e-06 9.031210e-06 2.431685e-06 9.747428e-05 -2.906729e-05 -9.981665e-01 7.883717e-04
2.100000e+10 9.771323e-01 -1.866152e-01 4.374060e-03 1.599484e-02 1.274115e-05 1.283407e-05 -4.248486e-06 -2.123752e-06 4.368673e-03 1.599742e-02 9.777890e-01 -1.831505e-01 -4.344420e-06 -1.985970e-06 1.210224e-05 1.099198e-05 1.217857e-05 8.169142e-07 -3.689307e-06 -1.561638e-06 -9.980917e-01 7.899617e-04 8.965494e-05 -2.689799e-05 -3.627308e-06 -1.945041e-06 9.656325e-06 2.349541e-06 9.669897e-05 -3.003896e-05 -9.981627e-01 8.217929e-04
2.187500e+10 9.755720e-01 -1.941817e-01 4.645392e-03 1.660723e-02 1.376150e-05 1.321111e-05 -4.539135e-06 -2.145900e-06 4.639635e-03 1.661009e-02 9.762841e-01 -1.905781e-01 -4.634541e-06 -2.005741e-06 1.302435e-05 1.129668e-05 1.299110e-05 6.184879e-07 -3.957879e-06 -1.543948e-06 -9.980885e-01 8.223183e-04 8.895296e-05 -2.775115e-05 -3.896851e-06 -1.942305e-06 1.029611e-05 2.250735e-06 9.590367e-05 -3.097882e-05 -9.981587e-01 8.551179e-04
2.275000e+10 9.739602e-01 -2.017335e-01 4.924877e-03 1.721518e-02 1.481932e-05 1.356980e-05 -4.839662e-06 -2.160509e-06 4.918740e-03 1.721834e-02 9.747300e-01 -1.979915e-01 -4.934695e-06 -2.018283e-06 1.397952e-05 1.158378e-05 1.382282e-05 4.007316e-07 -4.233206e-06 -1.518447e-06 -9.980852e-01 8.546126e-04 8.823397e-05 -2.857661e-05 -4.172750e-06 -1.931839e-06 1.094990e-05 2.135634e-06 9.508964e-05 -3.188654e-05 -9.981546e-01 8.883447e-04
2.362500e+10 9.722971e-01 -2.092713e-01 5.212424e-03 1.781877e-02 1.591419e-05 1.390958e-05 -5.149867e-06 -2.167382e-06 5.205899e-03 1.782226e-02 9.731267e-01 -2.053915e-01 -5.244692e-06 -2.023393e-06 1.496731e-05 1.185277e-05 1.467310e-05 1.640786e-07 -4.515028e-06 -1.485148e-06 -9.980819e-01 8.868429e-04 8.749901e-05 -2.937411e-05 -4.454716e-06 -1.913688e-06 1.161710e-05 2.004634e-06 9.425813e-05 -3.276184e-05 -9.981504e-01 9.214721e-04
2.450000e+10 9.705826e-01 -2.167957e-01 5.507970e-03 1.841811e-02 1.704566e-05 1.422990e-05 -5.469543e-06 -2.166327e-06 5.501049e-03 1.842194e-02 9.714742e-01 -2.127788e-01 -5.564342e-06 -2.020872e-06 1.598723e-05 1.210318e-05 1.554139e-05 -9.101969e-08 -4.803097e-06 -1.444072e-06 -9.980784e-01 9.190081e-04 8.674917e-05 -3.014348e-05 -4.742484e-06 -1.887907e-06 1.229723e-05 1.858151e-06 9.341039e-05 -3.360455e-05 -9.981461e-01 9.544985e-04
2.537500e+10 9.688166e-01 -2.243073e-01 5.811474e-03 1.901326e-02 1.821330e-05 1.453022e-05 -5.798482e-06 -2.157163e-06 5.804148e-03 1.901746e-02 9.697724e-01 -2.201538e-01 -5.893452e-06 -2.010531e-06 1.703884e-05 1.233453e-05 1.642725e-05 -3.641052e-07 -5.097188e-06 -1.395249e-06 -9.980748e-01 9.511067e-04 8.598547e-05 -3.088460e-05 -5.035806e-06 -1.854561e-06 1.298985e-05 1.696615e-06 9.254765e-05 -3.441454e-05 -9.981416e-01 9.874229e-04
2.625000e+10 9.669988e-01 -2.318066e-01 6.122915e-03 1.960431e-02 1.941665e-05 1.481002e-05 -6.136476e-06 -2.139716e-06 6.115178e-03 1.960890e-02 9.680209e-01 -2.275173e-01 -6.231826e-06 -1.992189e-06 1.812164e-05 1.254636e-05 1.733030e-05 -6.547233e-07 -5.397092e-06 -1.338716e-06 -9.980712e-01 9.831376e-04 8.520895e-05 -3.159740e-05 -5.334461e-06 -1.813719e-06 1.369460e-05 1.520455e-06 9.167110e-05 -3.519177e-05 -9.981371e-01 1.020244e-03
2.712500e+10 9.651288e-01 -2.392941e-01 6.442294e-03 2.019133e-02 2.065528e-05 1.506879e-05 -6.483313e-06 -2.113819e-06 6.434142e-03 2.019634e-02 9.662194e-01 -2.348695e-01 -6.579267e-06 -1.965668e-06 1.923519e-05 1.273826e-05 1.825028e-05 -9.624331e-07 -5.702616e-06 -1.274512e-06 -9.980674e-01 1.015100e-03 8.442062e-05 -3.228187e-05 -5.638242e-06 -1.765455e-06 1.441122e-05 1.330097e-06 9.078194e-05 -3.593627e-05 -9.981325e-01 1.052962e-03
2.800000e+10 9.632061e-01 -2.467702e-01 6.769633e-03 2.077437e-02 2.192872e-05 1.530604e-05 -6.838781e-06 -2.079315e-06 6.761058e-03 2.077982e-02 9.643674e-01 -2.422110e-01 -6.935577e-06 -1.930801e-06 2.037899e-05 1.290978e-05 1.918698e-05 -1.286816e-06 -6.013587e-06 -1.202678e-06 -9.980635e-01 1.046992e-03 8.362148e-05 -3.293808e-05 -5.946967e-06 -1.709844e-06 1.513949e-05 1.125954e-06 8.988132e-05 -3.664813e-05 -9.981277e-01 1.085575e-03
2.887500e+10 9.612302e-01 -2.542351e-01 7.104965e-03 2.135348e-02 2.323653e-05 1.552127e-05 -7.202668e-06 -2.036053e-06 7.095965e-03 2.135939e-02 9.624643e-01 -2.495420e-01 -7.300555e-06 -1.887425e-06 2.155259e-05 1.306053e-05 2.014028e-05 -1.627485e-06 -6.329844e-06 -1.123255e-06 -9.980595e-01 1.078813e-03 8.281249e-05 -3.356612e-05 -6.260469e-06 -1.646960e-06 1.587927e-05 9.084157e-07 8.897038e-05 -3.732751e-05 -9.981229e-01 1.118083e-03
2.975000e+10 9.592004e-01 -2.616890e-01 7.448343e-03 2.192869e-02 2.457823e-05 1.571403e-05 -7.574761e-06 -1.983890e-06 7.438913e-03 2.193508e-02 9.605096e-01 -2.568628e-01 -7.674001e-06 -1.835385e-06 2.275550e-05 1.319011e-05 2.111014e-05 -1.984091e-06 -6.651243e-06 -1.036283e-06 -9.980555e-01 1.110562e-03 8.199460e-05 -3.416614e-05 -6.578601e-06 -1.576876e-06 1.663048e-05 6.778472e-07 8.805023e-05 -3.797460e-05 -9.981180e-01 1.150486e-03
3.062500e+10 9.571161e-01 -2.691320e-01 7.799828e-03 2.250000e-02 2.595338e-05 1.588385e-05 -7.954846e-06 -1.922691e-06 7.789965e-03 2.250690e-02 9.585026e-01 -2.641733e-01 -8.055711e-06 -1.774531e-06 2.398726e-05 1.329815e-05 2.209656e-05 -2.356327e-06 -6.977652e-06 -9.417974e-07 -9.980513e-01 1.142239e-03 8.116874e-05 -3.473833e-05 -6.901231e-06 -1.499661e-06 1.739310e-05 4.345804e-07 8.712193e-05 -3.858967e-05 -9.981129e-01 1.182784e-03
3.150000e+10 9.549766e-01 -2.765640e-01 8.159491e-03 2.306741e-02 2.736152e-05 1.603028e-05 -8.342708e-06 -1.852327e-06 8.149194e-03 2.307485e-02 9.564425e-01 -2.714736e-01 -8.445483e-06 -1.704721e-06 2.524739e-05 1.338426e-05 2.309959e-05 -2.743940e-06 -7.308954e-06 -8.398306e-07 -9.980471e-01 1.173842e-03 8.033580e-05 -3.528295e-05 -7.228244e-06 -1.415376e-06 1.816715e-05 1.789100e-07 8.618654e-05 -3.917303e-05 -9.981078e-01 1.214976e-03
3.237500e+10 9.527811e-01 -2.839848e-01 8.527411e-03 2.363090e-02 2.880217e-05 1.615289e-05 -8.738133e-06 -1.772676e-06 8.516679e-03 2.363891e-02 9.543287e-01 -2.787635e-01 -8.843113e-06 -1.625818e-06 2.653542e-05 1.344812e-05 2.411936e-05 -3.146727e-06 -7.645040e-06 -7.304092e-07 -9.980427e-01 1.205371e-03 7.949664e-05 -3.580025e-05 -7.559537e-06 -1.324079e-06 1.895269e-05 -8.891048e-08 8.524505e-05 -3.972504e-05 -9.981026e-01 1.247062e-03
3.325000e+10 9.505289e-01 -2.913941e-01 8.903673e-03 2.419042e-02 3.027488e-05 1.625126e-05 -9.140909e-06 -1.683622e-06 8.892505e-03 2.419902e-02 9.521604e-01 -2.860429e-01 -9.248397e-06 -1.537690e-06 2.785090e-05 1.348936e-05 2.515600e-05 -3.564544e-06 -7.985811e-06 -6.135542e-07 -9.980383e-01 1.236826e-03 7.865210e-05 -3.629056e-05 -7.895020e-06 -1.225818e-06 1.974983e-05 -3.686723e-07 8.429844e-05 -4.024609e-05 -9.980974e-01 1.279043e-03
3.412500e+10 9.482192e-01 -2.987917e-01 9.288360e-03 2.474591e-02 3.177918e-05 1.632497e-05 -9.550821e-06 -1.585055e-06 9.276758e-03 2.475513e-02 9.499368e-01 -2.933112e-01 -9.661131e-06 -1.440212e-06 2.919334e-05 1.350765e-05 2.620970e-05 -3.997307e-06 -8.331178e-06 -4.892793e-07 -9.980338e-01 1.268204e-03 7.780300e-05 -3.675422e-05 -8.234612e-06 -1.120634e-06 2.055872e-05 -6.602136e-07 8.334765e-05 -4.073663e-05 -9.980920e-01 1.310918e-03
3.500000e+10 9.458514e-01 -3.061769e-01 9.681559e-03 2.529730e-02 3.331461e-05 1.637362e-05 -9.967656e-06 -1.476872e-06 9.669524e-03 2.530716e-02 9.476574e-01 -3.005682e-01 -1.008111e-05 -1.333264e-06 3.056229e-05 1.350269e-05 2.728064e-05 -4.444990e-06 -8.681057e-06 -3.575915e-07 -9.980292e-01 1.299507e-03 7.695012e-05 -3.719161e-05 -8.578244e-06 -1.008558e-06 2.137949e-05 -9.634210e-07 8.239358e-05 -4.119713e-05 -9.980866e-01 1.342689e-03
3.587500e+10 9.434249e-01 -3.135493e-01 1.008335e-02 2.584448e-02 3.488071e-05 1.639682e-05 -1.039120e-05 -1.358976e-06 1.007089e-02 2.585502e-02 9.453213e-01 -3.078132e-01 -1.050813e-05 -1.216732e-06 3.195729e-05 1.347416e-05 2.836904e-05 -4.907631e-06 -9.035371e-06 -2.184901e-07 -9.980246e-01 1.330733e-03 7.609420e-05 -3.760313e-05 -8.925853e-06 -8.896127e-07 2.221235e-05 -1.278231e-06 8.143709e-05 -4.162808e-05 -9.980811e-01 1.374355e-03
3.675000e+10 9.409388e-01 -3.209080e-01 1.049382e-02 2.638735e-02 3.647701e-05 1.639418e-05 -1.082125e-05 -1.231274e-06 1.048093e-02 2.639860e-02 9.429280e-01 -3.150455e-01 -1.094198e-05 -1.090506e-06 3.337788e-05 1.342176e-05 2.947513e-05 -5.385326e-06 -9.394045e-06 -7.196690e-08 -9.980198e-01 1.361882e-03 7.523596e-05 -3.798921e-05 -9.277383e-06 -7.638106e-07 2.305746e-05 -1.604629e-06 8.047900e-05 -4.203002e-05 -9.980756e-01 1.405917e-03
3.762500e+10 9.383928e-01 -3.282524e-01 1.091303e-02 2.692578e-02 3.810305e-05 1.636534e-05 -1.125758e-05 -1.093680e-06 1.089972e-02 2.693775e-02 9.404769e-01 -3.222644e-01 -1.138247e-05 -9.544823e-07 3.482360e-05 1.334521e-05 3.059911e-05 -5.878231e-06 -9.757010e-06 8.199385e-08 -9.980150e-01 1.392954e-03 7.437609e-05 -3.835029e-05 -9.632780e-06 -6.311547e-07 2.391504e-05 -1.942650e-06 7.952012e-05 -4.240351e-05 -9.980700e-01 1.437376e-03
3.850000e+10 9.357863e-01 -3.355815e-01 1.134105e-02 2.745961e-02 3.975836e-05 1.630991e-05 -1.169999e-05 -9.461116e-07 1.132732e-02 2.747234e-02 9.379675e-01 -3.294692e-01 -1.182939e-05 -8.085614e-07 3.629401e-05 1.324421e-05 3.174119e-05 -6.386558e-06 -1.012420e-05 2.434153e-07 -9.980101e-01 1.423948e-03 7.351526e-05 -3.868684e-05 -9.991997e-06 -4.916382e-07 2.478527e-05 -2.292378e-06 7.856119e-05 -4.274913e-05 -9.980643e-01 1.468732e-03
