!Murata Part Number: LQP02HQ0N5W02
!These Parameters are Measured in Series Mode Connection
!       o--[Z]--o
!Port1              Port2
!       o-------o
!
!Freq. Start=50[MHz] Stop=20[GHz], 401[Steps]
# Hz S RI R 50
!Freq.(Hz) S11(Real) S11(Imag) S21(Real) S21(Imag) S12(Real) S12(Imag) S22(Real) S22(Imag)
5.0E7 2.3758446190870564E-4 0.002060195861148211 0.9997624155380913 -0.002060195861148211 0.9997624155380913 -0.002060195861148211 2.3758446190870564E-4 0.002060195861148211
5.0754570186123446E7 2.387476615448315E-4 0.0020907194072126633 0.9997612523384553 -0.002090719407212663 0.9997612523384553 -0.002090719407212663 2.387476615448315E-4 0.0020907194072126633
5.152052789556263E7 2.3993243447105467E-4 0.0021216915568397976 0.999760067565529 -0.0021216915568397976 0.999760067565529 -0.0021216915568397976 2.3993243447105467E-4 0.0021216915568397976
5.229804498202928E7 2.4113915211248512E-4 0.002153118836818833 0.9997588608478877 -0.002153118836818833 0.9997588608478877 -0.002153118836818833 2.4113915211248512E-4 0.002153118836818833
5.308729589274893E7 2.4236818923961112E-4 0.0021850078663879315 0.9997576318107605 -0.0021850078663879315 0.9997576318107605 -0.0021850078663879315 2.4236818923961112E-4 0.0021850078663879315
5.388845770760058E7 2.4361992370961188E-4 0.0022173653586897786 0.9997563800762904 -0.0022173653586897786 0.9997563800762904 -0.0022173653586897786 2.4361992370961188E-4 0.0022173653586897786
5.470171017884717E7 2.448947362024359E-4 0.0022501981222744975 0.9997551052637975 -0.0022501981222744975 0.9997551052637975 -0.0022501981222744975 2.448947362024359E-4 0.0022501981222744975
5.5527235771465644E7 2.4619300995331407E-4 0.0022835130626513234 0.9997538069900468 -0.0022835130626513234 0.9997538069900468 -0.0022835130626513234 2.4619300995331407E-4 0.0022835130626513234
5.6365219704085544E7 2.4751513048349333E-4 0.002317317183890433 0.9997524848695164 -0.002317317183890433 0.9997524848695164 -0.002317317183890433 2.4751513048349333E-4 0.002317317183890433
5.721584999054556E7 2.488614853310824E-4 0.0023516175902761967 0.9997511385146691 -0.002351617590276197 0.9997511385146691 -0.002351617590276197 2.488614853310824E-4 0.0023516175902761967
5.807931748207712E7 2.5023246378400255E-4 0.002386421488013012 0.999749767536216 -0.002386421488013012 0.999749767536216 -0.002386421488013012 2.5023246378400255E-4 0.002386421488013012
5.8955815910124585E7 2.5162845661714784E-4 0.0024217361869848463 0.999748371543383 -0.0024217361869848463 0.999748371543383 -0.0024217361869848463 2.5162845661714784E-4 0.0024217361869848463
5.984554192981184E7 2.530498558359382E-4 0.0024575691025693906 0.9997469501441639 -0.0024575691025693906 0.9997469501441639 -0.0024575691025693906 2.530498558359382E-4 0.0024575691025693906
6.074869516406457E7 2.544970544285544E-4 0.0024939277575076984 0.9997455029455713 -0.0024939277575076984 0.9997455029455713 -0.0024939277575076984 2.544970544285544E-4 0.0024939277575076984
6.166547824839868E7 2.5597044612921176E-4 0.0025308197838299898 0.9997440295538708 -0.0025308197838299898 0.9997440295538708 -0.0025308197838299898 2.5597044612921176E-4 0.0025308197838299898
6.2596096876384385E7 2.574704251949143E-4 0.002568252924838181 0.9997425295748052 -0.002568252924838181 0.9997425295748052 -0.002568252924838181 2.574704251949143E-4 0.002568252924838181
6.354075984579668E7 2.589973861981905E-4 0.0026062350371455606 0.9997410026138019 -0.0026062350371455606 0.9997410026138019 -0.0026062350371455606 2.589973861981905E-4 0.0026062350371455606
6.449967910546205E7 2.6055172383837247E-4 0.0026447740927738462 0.9997394482761617 -0.0026447740927738462 0.9997394482761617 -0.0026447740927738462 2.6055172383837247E-4 0.0026447740927738462
6.547306980281226E7 2.6213383277402444E-4 0.0026838781813077147 0.9997378661672262 -0.0026838781813077147 0.9997378661672262 -0.0026838781813077147 2.6213383277402444E-4 0.0026838781813077147
6.646115033215589E7 2.6374410747916424E-4 0.0027235555121067133 0.999736255892521 -0.0027235555121067137 0.999736255892521 -0.0027235555121067137 2.6374410747916424E-4 0.0027235555121067133
6.746414238367817E7 2.6538294212594447E-4 0.0027638144165742953 0.999734617057874 -0.0027638144165742953 0.999734617057874 -0.0027638144165742953 2.6538294212594447E-4 0.0027638144165742953
6.848227099318038E7 2.6705073049646997E-4 0.0028046633504835096 0.9997329492695035 -0.0028046633504835096 0.9997329492695035 -0.0028046633504835096 2.6705073049646997E-4 0.0028046633504835096
6.951576459256999E7 2.6874786592643267E-4 0.0028461108963587414 0.9997312521340738 -0.002846110896358742 0.9997312521340738 -0.002846110896358742 2.6874786592643267E-4 0.0028461108963587414
7.056485506111258E7 2.70474741283216E-4 0.002888165765912615 0.999729525258717 -0.002888165765912615 0.999729525258717 -0.002888165765912615 2.70474741283216E-4 0.002888165765912615
7.162977777745734E7 2.722317489811096E-4 0.0029308368025370937 0.9997277682510187 -0.0029308368025370937 0.9997277682510187 -0.0029308368025370937 2.722317489811096E-4 0.0029308368025370937
7.271077167244768E7 2.74019281036208E-4 0.0029741329838475126 0.9997259807189636 -0.0029741329838475126 0.9997259807189636 -0.0029741329838475126 2.74019281036208E-4 0.0029741329838475126
7.380807928272885E7 2.7583772916352304E-4 0.0030180634242781266 0.9997241622708364 -0.003018063424278127 0.9997241622708364 -0.003018063424278127 2.7583772916352304E-4 0.0030180634242781266
7.492194680516452E7 2.7768748491874935E-4 0.0030626373777275567 0.9997223125150813 -0.0030626373777275567 0.9997223125150813 -0.0030626373777275567 2.7768748491874935E-4 0.0030626373777275567
7.60526241520746E7 2.795689398870344E-4 0.003107864240252325 0.9997204310601128 -0.0031078642402523247 0.9997204310601128 -0.0031078642402523247 2.795689398870344E-4 0.003107864240252325
7.720036500730675E7 2.8148248592099046E-4 0.0031537535528064725 0.999718517514079 -0.0031537535528064725 0.999718517514079 -0.0031537535528064725 2.8148248592099046E-4 0.0031537535528064725
7.836542688315398E7 2.834285154300552E-4 0.0032003150040250403 0.9997165714845699 -0.0032003150040250394 0.9997165714845699 -0.0032003150040250394 2.834285154300552E-4 0.0032003150040250403
7.954807117813127E7 2.854074217231652E-4 0.003247558433049065 0.9997145925782769 -0.0032475584330490643 0.9997145925782769 -0.0032475584330490643 2.854074217231652E-4 0.003247558433049065
8.074856323562416E7 2.8741959940654265E-4 0.0032954938323895406 0.9997125804005933 -0.0032954938323895406 0.9997125804005933 -0.0032954938323895406 2.8741959940654265E-4 0.0032954938323895406
8.196717240342227E7 2.894654448382141E-4 0.003344131350827609 0.9997105345551619 -0.0033441313508276093 0.9997105345551619 -0.0033441313508276093 2.894654448382141E-4 0.003344131350827609
8.320417209415154E7 2.9154535664068637E-4 0.0033934812963481455 0.9997084546433594 -0.0033934812963481446 0.9997084546433594 -0.0033934812963481446 2.9154535664068637E-4 0.0033934812963481455
8.445983984661816E7 2.936597362729957E-4 0.003443554139103708 0.9997063402637268 -0.003443554139103708 0.9997063402637268 -0.003443554139103708 2.936597362729957E-4 0.003443554139103708
8.573445738807854E7 2.958089886631167E-4 0.0034943605144057716 0.9997041910113371 -0.0034943605144057716 0.9997041910113371 -0.0034943605144057716 2.958089886631167E-4 0.0034943605144057716
8.702831069744885E7 2.9799352290147893E-4 0.003545911225739924 0.9997020064770986 -0.003545911225739924 0.9997020064770986 -0.003545911225739924 2.9799352290147893E-4 0.003545911225739924
8.834169006946853E7 3.002137529960927E-4 0.003598217247801802 0.9996997862470041 -0.003598217247801802 0.9996997862470041 -0.003598217247801802 3.002137529960927E-4 0.003598217247801802
8.96748901798321E7 3.0247009868951104E-4 0.0036512897295502673 0.9996975299013104 -0.0036512897295502673 0.9996975299013104 -0.0036512897295502673 3.0247009868951104E-4 0.0036512897295502673
9.1028210151304E7 3.0476298633759415E-4 0.0037051399972744393 0.9996952370136625 -0.0037051399972744393 0.9996952370136625 -0.0037051399972744393 3.0476298633759415E-4 0.0037051399972744393
9.240195362083109E7 3.070928498497507E-4 0.0037597795576710404 0.9996929071501504 -0.0037597795576710404 0.9996929071501504 -0.0037597795576710404 3.070928498497507E-4 0.0037597795576710404
9.379642880766791E7 3.094601316900517E-4 0.0038152201009286056 0.99969053986831 -0.0038152201009286056 0.99969053986831 -0.0038152201009286056 3.094601316900517E-4 0.0038152201009286056
9.521194858253023E7 3.1186528393830926E-4 0.0038714735038150273 0.9996881347160617 -0.0038714735038150273 0.9996881347160617 -0.0038714735038150273 3.1186528393830926E-4 0.0038714735038150273
9.664883053779216E7 3.143087694099288E-4 0.003928551832765023 0.99968569123059 -0.003928551832765023 0.99968569123059 -0.003928551832765023 3.143087694099288E-4 0.003928551832765023
9.810739705874248E7 3.16791062833036E-4 0.003986467346964099 0.999683208937167 -0.003986467346964099 0.999683208937167 -0.003986467346964099 3.16791062833036E-4 0.003986467346964099
9.958797539591652E7 3.1931265208109705E-4 0.004045232501425735 0.9996806873479188 -0.004045232501425735 0.9996806873479188 -0.004045232501425735 3.1931265208109705E-4 0.004045232501425735
1.0109089773851961E8 3.218740394589443E-4 0.004104859950058587 0.999678125960541 -0.004104859950058588 0.999678125960541 -0.004104859950058588 3.218740394589443E-4 0.004104859950058587
1.0261650128895843E8 3.24475743039854E-4 0.004165362548720641 0.9996755242569602 -0.004165362548720641 0.9996755242569602 -0.004165362548720641 3.24475743039854E-4 0.004165362548720641
1.0416512833849736E8 3.2711829805102293E-4 0.0042267533582573905 0.9996728817019488 -0.0042267533582573905 0.9996728817019488 -0.0042267533582573905 3.2711829805102293E-4 0.0042267533582573905
1.0573712634405641E8 3.298022583045456E-4 0.004289045647521379 0.9996701977416954 -0.0042890456475213785 0.9996701977416954 -0.0042890456475213785 3.298022583045456E-4 0.004289045647521379
1.0733284800616828E8 3.325281976707212E-4 0.004352252896370497 0.9996674718023293 -0.004352252896370497 0.9996674718023293 -0.004352252896370497 3.325281976707212E-4 0.004352252896370497
1.0895265134811176E8 3.3529671159029126E-4 0.004416388798642813 0.9996647032884096 -0.004416388798642812 0.9996647032884096 -0.004416388798642812 3.3529671159029126E-4 0.004416388798642813
1.1059689979623953E8 3.38108418621972E-4 0.004481467265105818 0.9996618915813779 -0.004481467265105819 0.9996618915813779 -0.004481467265105819 3.38108418621972E-4 0.004481467265105818
1.1226596226151802E8 3.4096396202145627E-4 0.004547502426378364 0.9996590360379785 -0.004547502426378364 0.9996590360379785 -0.004547502426378364 3.4096396202145627E-4 0.004547502426378364
1.1396021322229806E8 3.4386401134785233E-4 0.004614508635823711 0.999656135988652 -0.004614508635823711 0.999656135988652 -0.004614508635823711 3.4386401134785233E-4 0.004614508635823711
1.1568003280833441E8 3.468092640933771E-4 0.004682500472412524 0.9996531907359064 -0.004682500472412523 0.9996531907359064 -0.004682500472412523 3.468092640933771E-4 0.004682500472412524
1.1742580688607343E8 3.4980044733196785E-4 0.004751492743554879 0.9996501995526682 -0.004751492743554879 0.9996501995526682 -0.004751492743554879 3.4980044733196785E-4 0.004751492743554879
1.1919792714522783E8 3.5283831938236334E-4 0.004821500487900715 0.9996471616806176 -0.004821500487900715 0.9996471616806176 -0.004821500487900715 3.5283831938236334E-4 0.004821500487900715
1.2099679118665792E8 3.5592367148110034E-4 0.004892538978108462 0.999644076328519 -0.004892538978108462 0.999644076328519 -0.004892538978108462 3.5592367148110034E-4 0.004892538978108462
1.2282280261157903E8 3.590573294608068E-4 0.004964623723581918 0.9996409426705392 -0.004964623723581919 0.9996409426705392 -0.004964623723581919 3.590573294608068E-4 0.004964623723581918
1.2467637111211549E8 3.6224015542912373E-4 0.005037770473175807 0.9996377598445708 -0.005037770473175807 0.9996377598445708 -0.005037770473175807 3.6224015542912373E-4 0.005037770473175807
1.265579125632208E8 3.6547304944356627E-4 0.0051119952178707755 0.9996345269505567 -0.0051119952178707755 0.9996345269505567 -0.0051119952178707755 3.6547304944356627E-4 0.0051119952178707755
1.284678491159853E8 3.6875695117763696E-4 0.005187314193418928 0.9996312430488222 -0.005187314193418927 0.9996312430488222 -0.005187314193418927 3.6875695117763696E-4 0.005187314193418928
1.3040660929235186E8 3.7209284157353593E-4 0.0052637438829613815 0.9996279071584265 -0.0052637438829613815 0.9996279071584265 -0.0052637438829613815 3.7209284157353593E-4 0.0052637438829613815
1.3237462808126101E8 3.754817444768602E-4 0.005341301019619569 0.9996245182555232 -0.005341301019619569 0.9996245182555232 -0.005341301019619569 3.754817444768602E-4 0.005341301019619569
1.3437234703624701E8 3.789247282487636E-4 0.005420002589062459 0.9996210752717511 -0.005420002589062459 0.9996210752717511 -0.005420002589062459 3.789247282487636E-4 0.005420002589062459
1.364002143745067E8 3.824229073511438E-4 0.005499865832052101 0.9996175770926489 -0.005499865832052101 0.9996175770926489 -0.005499865832052101 3.824229073511438E-4 0.005499865832052101
1.3845868507746372E8 3.859774439005458E-4 0.005580908246970291 0.9996140225560995 -0.005580908246970291 0.9996140225560995 -0.005580908246970291 3.859774439005458E-4 0.005580908246970291
1.405482209928499E8 3.895895491866007E-4 0.005663147592329339 0.9996104104508133 -0.005663147592329339 0.9996104104508133 -0.005663147592329339 3.895895491866007E-4 0.005663147592329339
1.426692909383278E8 3.9326048515098957E-4 0.005746601889270401 0.999606739514849 -0.005746601889270401 0.999606739514849 -0.005746601889270401 3.9326048515098957E-4 0.005746601889270401
1.4482237080667645E8 3.9699156582307586E-4 0.005831289424052854 0.9996030084341768 -0.005831289424052855 0.9996030084341768 -0.005831289424052855 3.9699156582307586E-4 0.005831289424052854
1.4700794367256513E8 4.0078415870855796E-4 0.005917228750538753 0.9995992158412913 -0.005917228750538753 0.9995992158412913 -0.005917228750538753 4.0078415870855796E-4 0.005917228750538753
1.492264999009378E8 4.046396861276767E-4 0.0060044386926763485 0.9995953603138722 -0.006004438692676349 0.9995953603138722 -0.006004438692676349 4.046396861276767E-4 0.0060044386926763485
1.5147853725703382E8 4.0855962649973633E-4 0.006092938346987169 0.9995914403735001 -0.006092938346987168 0.9995914403735001 -0.006092938346987168 4.0855962649973633E-4 0.006092938346987169
1.5376456101806876E8 4.125455155709087E-4 0.00618274708506111 0.9995874544844292 -0.006182747085061109 0.9995874544844292 -0.006182747085061109 4.125455155709087E-4 0.00618274708506111
1.5608508408660066E8 4.165989475825304E-4 0.006273884556064395 0.9995834010524176 -0.006273884556064395 0.9995834010524176 -0.006273884556064395 4.165989475825304E-4 0.006273884556064395
1.5844062710560706E8 4.207215763773229E-4 0.006366370689265314 0.9995792784236226 -0.006366370689265314 0.9995792784236226 -0.006366370689265314 4.207215763773229E-4 0.006366370689265314
1.6083171857529896E8 4.249151164412192E-4 0.0064602256965828695 0.9995750848835586 -0.0064602256965828695 0.9995750848835586 -0.0064602256965828695 4.249151164412192E-4 0.0064602256965828695
1.632588949716973E8 4.291813438787043E-4 0.006555470075163577 0.9995708186561213 -0.006555470075163577 0.9995708186561213 -0.006555470075163577 4.291813438787043E-4 0.006555470075163577
1.6572270086699936E8 4.335220973198358E-4 0.006652124609991854 0.9995664779026802 -0.006652124609991854 0.9995664779026802 -0.006652124609991854 4.335220973198358E-4 0.006652124609991854
1.6822368905176118E8 4.3793927875733594E-4 0.006750210376539471 0.9995620607212425 -0.00675021037653947 0.9995620607212425 -0.00675021037653947 4.3793927875733594E-4 0.006750210376539471
1.7076242065892437E8 4.424348543124035E-4 0.006849748743459771 0.9995575651456877 -0.006849748743459771 0.9995575651456877 -0.006849748743459771 4.424348543124035E-4 0.006849748743459771
1.7333946528971428E8 4.4701085492811205E-4 0.006950761375332305 0.999552989145072 -0.006950761375332305 0.999552989145072 -0.006950761375332305 4.4701085492811205E-4 0.006950761375332305
1.7595540114143828E8 4.516693769895098E-4 0.007053270235463731 0.9995483306230104 -0.007053270235463731 0.9995483306230104 -0.007053270235463731 4.516693769895098E-4 0.007053270235463731
1.786108151372127E8 4.564125828697645E-4 0.00715729758875092 0.9995435874171303 -0.007157297588750922 0.9995435874171303 -0.007157297588750922 4.564125828697645E-4 0.00715729758875092
1.8130630305764765E8 4.612427014019136E-4 0.007262866004612147 0.9995387572985982 -0.007262866004612149 0.9995387572985982 -0.007262866004612149 4.612427014019136E-4 0.007262866004612147
1.840424696745189E8 4.6616202827601375E-4 0.007369998359992495 0.9995338379717241 -0.007369998359992496 0.9995338379717241 -0.007369998359992496 4.6616202827601375E-4 0.007369998359992495
1.8681992888645732E8 4.711729263616905E-4 0.0074787178424494775 0.9995288270736384 -0.0074787178424494775 0.9995288270736384 -0.0074787178424494775 4.711729263616905E-4 0.0074787178424494775
1.8963930385668582E8 4.7627782595631305E-4 0.007589047953325132 0.9995237221740436 -0.007589047953325132 0.9995237221740436 -0.007589047953325132 4.7627782595631305E-4 0.007589047953325132
1.92501227152835E8 4.814792249592169E-4 0.007701012511010706 0.9995185207750408 -0.007701012511010704 0.9995185207750408 -0.007701012511010704 4.814792249592169E-4 0.007701012511010706
1.9540634088886917E8 4.867796889726093E-4 0.007814635654310249 0.9995132203110274 -0.007814635654310249 0.9995132203110274 -0.007814635654310249 4.867796889726093E-4 0.007814635654310249
1.983552968691535E8 4.921818513300034E-4 0.00792994184590944 0.99950781814867 -0.00792994184590944 0.99950781814867 -0.00792994184590944 4.921818513300034E-4 0.00792994184590944
2.0134875673469606E8 4.976884130532159E-4 0.008046955875956038 0.9995023115869468 -0.008046955875956038 0.9995023115869468 -0.008046955875956038 4.976884130532159E-4 0.008046955875956038
2.0438739211159652E8 5.0330214273918E-4 0.008165702865758354 0.9994966978572608 -0.008165702865758354 0.9994966978572608 -0.008165702865758354 5.0330214273918E-4 0.008165702865758354
2.074718847617352E8 5.09025876378019E-4 0.008286208271608319 0.9994909741236222 -0.008286208271608319 0.9994909741236222 -0.008286208271608319 5.09025876378019E-4 0.008286208271608319
2.106029267357361E8 5.148625171040458E-4 0.00840849788873571 0.9994851374828958 -0.008408497888735711 0.9994851374828958 -0.008408497888735711 5.148625171040458E-4 0.00840849788873571
2.1378122052823865E8 5.208150348815532E-4 0.00853259785540017 0.9994791849651185 -0.00853259785540017 0.9994791849651185 -0.00853259785540017 5.208150348815532E-4 0.00853259785540017
2.1700747923551247E8 5.268864661274856E-4 0.008658534657127775 0.9994731135338724 -0.008658534657127773 0.9994731135338724 -0.008658534657127773 5.268864661274856E-4 0.008658534657127775
2.2028242671545094E8 5.330799132733069E-4 0.008786335131098957 0.9994669200867267 -0.008786335131098957 0.9994669200867267 -0.008786335131098957 5.330799132733069E-4 0.008786335131098957
2.23606797749979E8 5.393985442686123E-4 0.008916026470694696 0.9994606014557313 -0.008916026470694697 0.9994606014557313 -0.008916026470694697 5.393985442686123E-4 0.008916026470694696
2.2698133820991236E8 5.458455920292827E-4 0.009047636230207958 0.9994541544079708 -0.009047636230207958 0.9994541544079708 -0.009047636230207958 5.458455920292827E-4 0.009047636230207958
2.3040680522230446E8 5.524243538332342E-4 0.00918119232972749 0.9994475756461668 -0.00918119232972749 0.9994475756461668 -0.00918119232972749 5.524243538332342E-4 0.00918119232972749
2.338839673403185E8 5.591381906670946E-4 0.009316723060201102 0.999440861809333 -0.009316723060201102 0.999440861809333 -0.009316723060201102 5.591381906670946E-4 0.009316723060201102
