#   Hz   S  RI   R   50
!
0.000000e+00 4.662060e-03 0.000000e+00 6.460729e-04 0.000000e+00 9.948599e-01 0.000000e+00 -5.798363e-04 0.000000e+00 6.464714e-04 0.000000e+00 4.674840e-03 0.000000e+00 -5.787892e-04 0.000000e+00 9.948182e-01 0.000000e+00 9.948913e-01 0.000000e+00 -5.852704e-04 0.000000e+00 4.639582e-03 0.000000e+00 6.763994e-04 0.000000e+00 -5.840200e-04 0.000000e+00 9.948514e-01 0.000000e+00 6.775615e-04 0.000000e+00 4.646177e-03 0.000000e+00
8.750000e+08 4.662770e-03 -1.406807e-06 6.468603e-04 1.369184e-04 9.948554e-01 -2.094789e-03 -5.799155e-04 3.411169e-05 6.472582e-04 1.368590e-04 4.675639e-03 1.533922e-05 -5.788648e-04 3.500355e-05 9.948137e-01 -2.095174e-03 9.948866e-01 -2.112034e-03 -5.854096e-04 2.651738e-05 4.642029e-03 1.047355e-06 6.767079e-04 1.491180e-04 -5.841563e-04 2.719129e-05 9.948467e-01 -2.105809e-03 6.778672e-04 1.490576e-04 4.648636e-03 2.719102e-05
1.750000e+09 4.664891e-03 -3.013619e-06 6.492206e-04 2.737906e-04 9.948420e-01 -4.189233e-03 -5.801526e-04 6.824030e-05 6.496169e-04 2.736719e-04 4.678030e-03 3.047762e-05 -5.790910e-04 7.002369e-05 9.948001e-01 -4.189999e-03 9.948724e-01 -4.223677e-03 -5.858264e-04 5.305886e-05 4.649361e-03 1.885773e-06 6.776322e-04 2.981994e-04 -5.845642e-04 5.440671e-05 9.948326e-01 -4.211226e-03 6.787832e-04 2.980789e-04 4.656005e-03 5.417247e-05
2.625000e+09 4.668399e-03 -5.018954e-06 6.531486e-04 4.105706e-04 9.948196e-01 -6.282989e-03 -5.805459e-04 1.024026e-04 6.535422e-04 4.103928e-04 4.681989e-03 4.521583e-05 -5.794661e-04 1.050769e-04 9.947776e-01 -6.284130e-03 9.948489e-01 -6.334540e-03 -5.865179e-04 7.964841e-05 4.661557e-03 2.307647e-06 6.791682e-04 4.472077e-04 -5.852410e-04 8.167021e-05 9.948092e-01 -6.315859e-03 6.803053e-04 4.470281e-04 4.668260e-03 8.073613e-05
3.500000e+09 4.673256e-03 -7.618387e-06 6.586356e-04 5.472134e-04 9.947883e-01 -8.375720e-03 -5.810924e-04 1.366154e-04 6.590253e-04 5.469765e-04 4.687476e-03 5.935747e-05 -5.799873e-04 1.401796e-04 9.947462e-01 -8.377228e-03 9.948162e-01 -8.444241e-03 -5.874798e-04 1.063096e-04 4.678578e-03 2.108015e-06 6.813089e-04 5.961071e-04 -5.861823e-04 1.090054e-04 9.947764e-01 -8.419327e-03 6.824266e-04 5.958697e-04 4.685365e-03 1.066764e-04
4.375000e+09 4.679406e-03 -1.100311e-05 6.656693e-04 6.836746e-04 9.947483e-01 -1.046710e-02 -5.817882e-04 1.708949e-04 6.660541e-04 6.833789e-04 4.694437e-03 7.271051e-05 -5.806508e-04 1.753478e-04 9.947060e-01 -1.046896e-02 9.947742e-01 -1.055241e-02 -5.887057e-04 1.330657e-04 4.700371e-03 1.085840e-06 6.840449e-04 7.448627e-04 -5.873819e-04 1.364356e-04 9.947345e-01 -1.052126e-02 6.851377e-04 7.445691e-04 4.707266e-03 1.317917e-04
5.250000e+09 4.686782e-03 -1.535857e-05 6.742345e-04 8.199115e-04 9.946996e-01 -1.255680e-02 -5.826282e-04 2.052571e-04 6.746133e-04 8.195573e-04 4.702802e-03 8.508869e-05 -5.814515e-04 2.105972e-04 9.946570e-01 -1.255900e-02 9.947232e-01 -1.265868e-02 -5.901879e-04 1.599392e-04 4.726871e-03 -9.547483e-07 6.873643e-04 8.934405e-04 -5.888317e-04 1.639831e-04 9.946836e-01 -1.262129e-02 6.884268e-04 8.930929e-04 4.733898e-03 1.558856e-04
6.125000e+09 4.695298e-03 -2.086315e-05 6.843126e-04 9.558828e-04 9.946424e-01 -1.464452e-02 -5.836063e-04 2.397177e-04 6.846845e-04 9.554704e-04 4.712488e-03 9.631281e-05 -5.823835e-04 2.459431e-04 9.945995e-01 -1.464705e-02 9.946634e-01 -1.476273e-02 -5.919168e-04 1.869519e-04 4.757997e-03 -4.203279e-06 6.912525e-04 1.041808e-03 -5.905224e-04 1.916699e-04 9.946239e-01 -1.471907e-02 6.922793e-04 1.041409e-03 4.765179e-03 1.787679e-04
7.000000e+09 4.704860e-03 -2.768694e-05 6.958824e-04 1.091549e-03 9.945769e-01 -1.672998e-02 -5.847154e-04 2.742916e-04 6.962463e-04 1.091079e-03 4.723399e-03 1.062119e-04 -5.834398e-04 2.814002e-04 9.945337e-01 -1.673281e-02 9.945949e-01 -1.686421e-02 -5.938814e-04 2.141246e-04 4.793656e-03 -8.841831e-06 6.956929e-04 1.189934e-03 -5.924429e-04 2.195169e-04 9.945555e-01 -1.681430e-02 6.966788e-04 1.189486e-03 4.801016e-03 2.002562e-04
7.875000e+09 4.715357e-03 -3.599062e-05 7.089198e-04 1.226874e-03 9.945032e-01 -1.881289e-02 -5.859474e-04 3.089934e-04 7.092750e-04 1.226346e-03 4.735426e-03 1.146246e-04 -5.846126e-04 3.169829e-04 9.944596e-01 -1.881600e-02 9.945179e-01 -1.896283e-02 -5.960692e-04 2.414773e-04 4.833743e-03 -1.504401e-05 7.006667e-04 1.337790e-03 -5.945808e-04 2.475438e-04 9.944786e-01 -1.890664e-02 7.016064e-04 1.337297e-03 4.841304e-03 2.201762e-04
8.750000e+09 4.726671e-03 -4.592446e-05 7.233986e-04 1.361822e-03 9.944216e-01 -2.089300e-02 -5.872934e-04 3.438369e-04 7.237440e-04 1.361237e-03 4.748448e-03 1.213997e-04 -5.858931e-04 3.527045e-04 9.943775e-01 -2.089637e-02 9.944328e-01 -2.105831e-02 -5.984666e-04 2.690286e-04 4.878141e-03 -2.297403e-05 7.061531e-04 1.485348e-03 -5.969223e-04 2.757696e-04 9.943936e-01 -2.099584e-02 7.070415e-04 1.484813e-03 4.885927e-03 2.383635e-04
9.625000e+09 4.738670e-03 -5.762738e-05 7.392901e-04 1.496361e-03 9.943322e-01 -2.297008e-02 -5.887437e-04 3.788351e-04 7.396251e-04 1.495720e-03 4.762336e-03 1.263975e-04 -5.872717e-04 3.885781e-04 9.942877e-01 -2.297368e-02 9.943397e-01 -2.315039e-02 -6.010584e-04 2.967961e-04 4.926725e-03 -3.278587e-05 7.121296e-04 1.632583e-03 -5.994524e-04 3.042116e-04 9.943007e-01 -2.308163e-02 7.129616e-04 1.632011e-03 4.934758e-03 2.546635e-04
1.050000e+10 4.751215e-03 -7.122619e-05 7.565641e-04 1.630463e-03 9.942354e-01 -2.504392e-02 -5.902875e-04 4.140003e-04 7.568878e-04 1.629765e-03 4.776948e-03 1.294904e-04 -5.887382e-04 4.246157e-04 9.941904e-01 -2.504771e-02 9.942390e-01 -2.523885e-02 -6.038287e-04 3.247961e-04 4.979359e-03 -4.462258e-05 7.185723e-04 1.779473e-03 -6.021552e-04 3.328861e-04 9.942002e-01 -2.516378e-02 7.193430e-04 1.778867e-03 4.987661e-03 2.689329e-04
1.137500e+10 4.764158e-03 -8.683496e-05 7.751885e-04 1.764100e-03 9.941313e-01 -2.711432e-02 -5.919139e-04 4.493442e-04 7.755003e-04 1.763347e-03 4.792138e-03 1.305635e-04 -5.902815e-04 4.608287e-04 9.940857e-01 -2.711828e-02 9.941309e-01 -2.732349e-02 -6.067606e-04 3.530434e-04 5.035899e-03 -5.861565e-05 7.254558e-04 1.925998e-03 -6.050136e-04 3.618080e-04 9.940923e-01 -2.724210e-02 7.261603e-04 1.925363e-03 5.044492e-03 2.810398e-04
1.225000e+10 4.777345e-03 -1.045545e-04 7.951303e-04 1.897248e-03 9.940202e-01 -2.918112e-02 -5.936110e-04 4.848772e-04 7.954295e-04 1.896441e-03 4.807751e-03 1.295151e-04 -5.918903e-04 4.972274e-04 9.939741e-01 -2.918522e-02 9.940157e-01 -2.940414e-02 -6.098362e-04 3.815513e-04 5.096195e-03 -7.488455e-05 7.327538e-04 2.072138e-03 -6.080098e-04 3.909907e-04 9.939773e-01 -2.931641e-02 7.333874e-04 2.071479e-03 5.105101e-03 2.908646e-04
1.312500e+10 4.790617e-03 -1.244720e-04 8.163553e-04 2.029889e-03 9.939024e-01 -3.124417e-02 -5.953663e-04 5.206091e-04 8.166414e-04 2.029027e-03 4.823627e-03 1.262573e-04 -5.935523e-04 5.338216e-04 9.938557e-01 -3.124839e-02 9.938938e-01 -3.148065e-02 -6.130372e-04 4.103319e-04 5.160090e-03 -9.353638e-05 7.404390e-04 2.217880e-03 -6.111256e-04 4.204460e-04 9.938556e-01 -3.138657e-02 7.409971e-04 2.217202e-03 5.169330e-03 2.983000e-04
1.400000e+10 4.803809e-03 -1.466607e-04 8.388289e-04 2.162004e-03 9.937782e-01 -3.330337e-02 -5.971673e-04 5.565489e-04 8.391013e-04 2.161088e-03 4.839603e-03 1.207159e-04 -5.952550e-04 5.706200e-04 9.937308e-01 -3.330766e-02 9.937655e-01 -3.355292e-02 -6.163445e-04 4.393955e-04 5.227424e-03 -1.146656e-04 7.484837e-04 2.363211e-03 -6.143418e-04 4.501846e-04 9.937276e-01 -3.345247e-02 7.489617e-04 2.362519e-03 5.237019e-03 3.032513e-04
1.487500e+10 4.816754e-03 -1.711800e-04 8.625159e-04 2.293579e-03 9.936477e-01 -3.535862e-02 -5.990007e-04 5.927044e-04 8.627744e-04 2.292610e-03 4.855510e-03 1.128308e-04 -5.969857e-04 6.076303e-04 9.935998e-01 -3.536295e-02 9.936310e-01 -3.562086e-02 -6.197389e-04 4.687511e-04 5.298032e-03 -1.383538e-04 7.568597e-04 2.508121e-03 -6.176391e-04 4.802151e-04 9.935934e-01 -3.551403e-02 7.572532e-04 2.507419e-03 5.308004e-03 3.056367e-04
1.575000e+10 4.829284e-03 -1.980752e-04 8.873815e-04 2.424603e-03 9.935114e-01 -3.740986e-02 -6.008531e-04 6.290826e-04 8.876255e-04 2.423581e-03 4.871181e-03 1.025557e-04 -5.987311e-04 6.448596e-04 9.934628e-01 -3.741419e-02 9.934907e-01 -3.768442e-02 -6.232007e-04 4.984062e-04 5.371748e-03 -1.646699e-04 7.655386e-04 2.652601e-03 -6.209981e-04 5.105452e-04 9.934535e-01 -3.757120e-02 7.658434e-04 2.651897e-03 5.382117e-03 3.053873e-04
1.662500e+10 4.841229e-03 -2.273779e-04 9.133908e-04 2.555067e-03 9.933695e-01 -3.945703e-02 -6.027109e-04 6.656896e-04 9.136202e-04 2.553993e-03 4.886447e-03 8.985837e-05 -6.004780e-04 6.823137e-04 9.933202e-01 -3.946133e-02 9.933450e-01 -3.974358e-02 -6.267102e-04 5.283666e-04 5.448405e-03 -1.936701e-04 7.744923e-04 2.796649e-03 -6.243989e-04 5.411806e-04 9.933081e-01 -3.962395e-02 7.747040e-04 2.795947e-03 5.459192e-03 3.024469e-04
1.750000e+10 4.852423e-03 -2.591060e-04 9.405096e-04 2.684966e-03 9.932222e-01 -4.150013e-02 -6.045603e-04 7.025305e-04 9.407241e-04 2.683841e-03 4.901139e-03 7.471979e-05 -6.022128e-04 7.199978e-04 9.931722e-01 -4.150436e-02 9.931941e-01 -4.179834e-02 -6.302478e-04 5.586368e-04 5.527835e-03 -2.253982e-04 7.836928e-04 2.940261e-03 -6.278219e-04 5.721259e-04 9.931575e-01 -4.167228e-02 7.838074e-04 2.939568e-03 5.539059e-03 2.967717e-04
1.837500e+10 4.862698e-03 -2.932644e-04 9.687044e-04 2.814298e-03 9.930699e-01 -4.353915e-02 -6.063875e-04 7.396095e-04 9.689039e-04 2.813122e-03 4.915090e-03 5.713433e-05 -6.039219e-04 7.579161e-04 9.930192e-01 -4.354328e-02 9.930383e-01 -4.384874e-02 -6.337940e-04 5.892198e-04 5.609872e-03 -2.598857e-04 7.931126e-04 3.083438e-03 -6.312476e-04 6.033840e-04 9.930021e-01 -4.371623e-02 7.931262e-04 3.082759e-03 5.621554e-03 2.883302e-04
1.925000e+10 4.871890e-03 -3.298450e-04 9.979431e-04 2.943062e-03 9.929127e-01 -4.557412e-02 -6.081787e-04 7.769299e-04 9.981275e-04 2.941836e-03 4.928138e-03 3.710901e-05 -6.055920e-04 7.960719e-04 9.928613e-01 -4.557811e-02 9.928779e-01 -4.589482e-02 -6.373294e-04 6.201173e-04 5.694351e-03 -2.971522e-04 8.027250e-04 3.226182e-03 -6.346567e-04 6.349565e-04 9.928422e-01 -4.575586e-02 8.026337e-04 3.225524e-03 5.706510e-03 2.771029e-04
2.012500e+10 4.879841e-03 -3.688279e-04 1.028194e-03 3.071262e-03 9.927510e-01 -4.760509e-02 -6.099202e-04 8.144942e-04 1.028364e-03 3.069985e-03 4.940123e-03 1.466301e-05 -6.072094e-04 8.344677e-04 9.926989e-01 -4.760891e-02 9.927132e-01 -4.793668e-02 -6.408352e-04 6.513296e-04 5.781111e-03 -3.372061e-04 8.125042e-04 3.368499e-03 -6.380303e-04 6.668439e-04 9.926780e-01 -4.779124e-02 8.123041e-04 3.367867e-03 5.793768e-03 2.630815e-04
2.100000e+10 4.886394e-03 -4.101813e-04 1.059429e-03 3.198900e-03 9.925849e-01 -4.963213e-02 -6.115984e-04 8.523040e-04 1.059583e-03 3.197575e-03 4.950889e-03 -1.017296e-05 -6.087609e-04 8.731050e-04 9.925321e-01 -4.963574e-02 9.925444e-01 -4.997440e-02 -6.442929e-04 6.828557e-04 5.869995e-03 -3.800449e-04 8.224252e-04 3.510396e-03 -6.413499e-04 6.990450e-04 9.925097e-01 -4.982248e-02 8.221128e-04 3.509795e-03 5.883168e-03 2.462686e-04
2.187500e+10 4.891402e-03 -4.538627e-04 1.091618e-03 3.325985e-03 9.924147e-01 -5.165531e-02 -6.132000e-04 8.903599e-04 1.091758e-03 3.324610e-03 4.960287e-03 -3.735736e-05 -6.102334e-04 9.119848e-04 9.923612e-01 -5.165868e-02 9.923719e-01 -5.200812e-02 -6.476846e-04 7.146935e-04 5.960850e-03 -4.256560e-04 8.324645e-04 3.651880e-03 -6.445978e-04 7.315577e-04 9.923377e-01 -5.184969e-02 8.320360e-04 3.651318e-03 5.974559e-03 2.266771e-04
2.275000e+10 4.894720e-03 -4.998194e-04 1.124736e-03 3.452524e-03 9.922407e-01 -5.367474e-02 -6.147119e-04 9.286620e-04 1.124861e-03 3.451101e-03 4.968175e-03 -6.683857e-05 -6.116140e-04 9.511070e-04 9.921864e-01 -5.367784e-02 9.921957e-01 -5.403796e-02 -6.509930e-04 7.468398e-04 6.053528e-03 -4.740172e-04 8.425997e-04 3.792965e-03 -6.477565e-04 7.643788e-04 9.921622e-01 -5.387302e-02 8.420516e-04 3.792446e-03 6.067793e-03 2.043293e-04
2.362500e+10 4.896213e-03 -5.479896e-04 1.158759e-03 3.578528e-03 9.920629e-01 -5.569053e-02 -6.161212e-04 9.672096e-04 1.158869e-03 3.577057e-03 4.974415e-03 -9.855569e-05 -6.128900e-04 9.904711e-04 9.920080e-01 -5.569332e-02 9.920162e-01 -5.606409e-02 -6.542017e-04 7.792902e-04 6.147889e-03 -5.250972e-04 8.528097e-04 3.933661e-03 -6.508096e-04 7.975039e-04 9.919833e-01 -5.589262e-02 8.521387e-04 3.933192e-03 6.162728e-03 1.792567e-04
2.450000e+10 4.895752e-03 -5.983029e-04 1.193664e-03 3.704008e-03 9.918817e-01 -5.770281e-02 -6.174156e-04 1.006001e-03 1.193760e-03 3.702489e-03 4.978881e-03 -1.324394e-04 -6.140494e-04 1.030076e-03 9.918260e-01 -5.770527e-02 9.918335e-01 -5.808666e-02 -6.572948e-04 8.120396e-04 6.243796e-03 -5.788569e-04 8.630753e-04 4.073983e-03 -6.537414e-04 8.309279e-04 9.918013e-01 -5.790865e-02 8.622778e-04 4.073570e-03 6.259230e-03 1.514986e-04
2.537500e+10 4.893216e-03 -6.506810e-04 1.229431e-03 3.828977e-03 9.916971e-01 -5.971173e-02 -6.185830e-04 1.045035e-03 1.229513e-03 3.827411e-03 4.981450e-03 -1.684127e-04 -6.150802e-04 1.069919e-03 9.916407e-01 -5.971381e-02 9.916477e-01 -6.010587e-02 -6.602574e-04 8.450820e-04 6.341124e-03 -6.352495e-04 8.733784e-04 4.213946e-03 -6.565368e-04 8.646447e-04 9.916163e-01 -5.992131e-02 8.724511e-04 4.213595e-03 6.357171e-03 1.211020e-04
2.625000e+10 4.888494e-03 -7.050394e-04 1.266041e-03 3.953449e-03 9.915094e-01 -6.171742e-02 -6.196118e-04 1.084308e-03 1.266110e-03 3.951836e-03 4.982011e-03 -2.063919e-04 -6.159711e-04 1.109998e-03 9.914523e-01 -6.171911e-02 9.914591e-01 -6.212189e-02 -6.630755e-04 8.784105e-04 6.439750e-03 -6.942218e-04 8.837028e-04 4.353568e-03 -6.591818e-04 8.986474e-04 9.914284e-01 -6.193076e-02 8.826425e-04 4.353283e-03 6.456430e-03 8.812045e-05
2.712500e+10 4.881481e-03 -7.612871e-04 1.303479e-03 4.077438e-03 9.913185e-01 -6.372004e-02 -6.204908e-04 1.123816e-03 1.303535e-03 4.075777e-03 4.980460e-03 -2.462875e-04 -6.167109e-04 1.150309e-03 9.912608e-01 -6.372132e-02 9.912678e-01 -6.413493e-02 -6.657358e-04 9.120177e-04 6.539563e-03 -7.557146e-04 8.940341e-04 4.492864e-03 -6.616633e-04 9.329285e-04 9.912379e-01 -6.393722e-02 8.928375e-04 4.492652e-03 6.556895e-03 5.261326e-05
2.800000e+10 4.872082e-03 -8.193286e-04 1.341731e-03 4.200959e-03 9.911248e-01 -6.571977e-02 -6.212095e-04 1.163557e-03 1.341774e-03 4.199252e-03 4.976702e-03 -2.880050e-04 -6.172893e-04 1.190850e-03 9.910663e-01 -6.572060e-02 9.910738e-01 -6.614517e-02 -6.682260e-04 9.458954e-04 6.640457e-03 -8.196637e-04 9.043593e-04 4.631854e-03 -6.639690e-04 9.674799e-04 9.910448e-01 -6.594088e-02 9.030232e-04 4.631719e-03 6.658462e-03 1.464490e-05
2.887500e+10 4.860211e-03 -8.790640e-04 1.380785e-03 4.324027e-03 9.909282e-01 -6.771676e-02 -6.217575e-04 1.203526e-03 1.380816e-03 4.322273e-03 4.970650e-03 -3.314457e-04 -6.176962e-04 1.231616e-03 9.908691e-01 -6.771712e-02 9.908772e-01 -6.815282e-02 -6.705349e-04 9.800353e-04 6.742337e-03 -8.860005e-04 9.146673e-04 4.770557e-03 -6.660876e-04 1.002293e-03 9.908491e-01 -6.794193e-02 9.131886e-04 4.770505e-03 6.761033e-03 -2.571587e-05
2.975000e+10 4.845792e-03 -9.403899e-04 1.420632e-03 4.446658e-03 9.907289e-01 -6.971119e-02 -6.221255e-04 1.243718e-03 1.420651e-03 4.444857e-03 4.962229e-03 -3.765078e-04 -6.179221e-04 1.272602e-03 9.906691e-01 -6.971106e-02 9.906782e-01 -7.015808e-02 -6.726521e-04 1.014428e-03 6.845114e-03 -9.546530e-04 9.249487e-04 4.908991e-03 -6.680086e-04 1.037359e-03 9.906510e-01 -6.994059e-02 9.233241e-04 4.909027e-03 6.864522e-03 -6.839677e-05
3.062500e+10 4.828755e-03 -1.003201e-03 1.461263e-03 4.568867e-03 9.905270e-01 -7.170322e-02 -6.223042e-04 1.284128e-03 1.461271e-03 4.567019e-03 4.951369e-03 -4.230868e-04 -6.179580e-04 1.313804e-03 9.904665e-01 -7.170259e-02 9.904767e-01 -7.216115e-02 -6.745682e-04 1.049065e-03 6.948707e-03 -1.025546e-03 9.351957e-04 5.047176e-03 -6.697227e-04 1.072669e-03 9.904505e-01 -7.193706e-02 9.334221e-04 5.047306e-03 6.968847e-03 -1.133227e-04
3.150000e+10 4.809042e-03 -1.067389e-03 1.502673e-03 4.690669e-03 9.903224e-01 -7.369304e-02 -6.222851e-04 1.324751e-03 1.502670e-03 4.688774e-03 4.938012e-03 -4.710766e-04 -6.177955e-04 1.355217e-03 9.902613e-01 -7.369187e-02 9.902728e-01 -7.416223e-02 -6.762746e-04 1.083936e-03 7.053046e-03 -1.098603e-03 9.454022e-04 5.185133e-03 -6.712214e-04 1.108213e-03 9.902477e-01 -7.393153e-02 9.434764e-04 5.185360e-03 7.073937e-03 -1.604165e-04
3.237500e+10 4.786602e-03 -1.132847e-03 1.544858e-03 4.812078e-03 9.901152e-01 -7.568081e-02 -6.220602e-04 1.365582e-03 1.544845e-03 4.810136e-03 4.922105e-03 -5.203703e-04 -6.174267e-04 1.396834e-03 9.900535e-01 -7.567909e-02 9.900665e-01 -7.616152e-02 -6.777637e-04 1.119033e-03 7.158065e-03 -1.173746e-03 9.555636e-04 5.322881e-03 -6.724972e-04 1.143981e-03 9.900424e-01 -7.592419e-02 9.534826e-04 5.323210e-03 7.179728e-03 -2.095996e-04
3.325000e+10 4.761392e-03 -1.199465e-03 1.587815e-03 4.933108e-03 9.899054e-01 -7.766670e-02 -6.216221e-04 1.406614e-03 1.587793e-03 4.931120e-03 4.903608e-03 -5.708606e-04 -6.168441e-04 1.438651e-03 9.898431e-01 -7.766442e-02 9.898577e-01 -7.815919e-02 -6.790289e-04 1.154344e-03 7.263709e-03 -1.250894e-03 9.656770e-04 5.460440e-03 -6.735432e-04 1.179963e-03 9.898348e-01 -7.791524e-02 9.634376e-04 5.460875e-03 7.286164e-03 -2.607927e-04
3.412500e+10 4.733378e-03 -1.267135e-03 1.631546e-03 5.053773e-03 9.896931e-01 -7.965086e-02 -6.209640e-04 1.447842e-03 1.631515e-03 5.051737e-03 4.882486e-03 -6.224407e-04 -6.160409e-04 1.480661e-03 9.896302e-01 -7.964800e-02 9.896465e-01 -8.015543e-02 -6.800644e-04 1.189861e-03 7.369930e-03 -1.329970e-03 9.757408e-04 5.597828e-03 -6.743538e-04 1.216151e-03 9.896248e-01 -7.990485e-02 9.733399e-04 5.598374e-03 7.393199e-03 -3.139163e-04
3.500000e+10 4.702535e-03 -1.335751e-03 1.676049e-03 5.174086e-03 9.894782e-01 -8.163347e-02 -6.200794e-04 1.489258e-03 1.676010e-03 5.172002e-03 4.858712e-03 -6.750050e-04 -6.150109e-04 1.522858e-03 9.894147e-01 -8.163002e-02 9.894329e-01 -8.215040e-02 -6.808652e-04 1.225573e-03 7.476687e-03 -1.410893e-03 9.857551e-04 5.735066e-03 -6.749240e-04 1.252534e-03 9.894124e-01 -8.189320e-02 9.831894e-04 5.735726e-03 7.500790e-03 -3.688914e-04
3.587500e+10 4.668842e-03 -1.405206e-03 1.721329e-03 5.294056e-03 9.892607e-01 -8.361467e-02 -6.189625e-04 1.530858e-03 1.721282e-03 5.291925e-03 4.832268e-03 -7.284493e-04 -6.137482e-04 1.565237e-03 9.891967e-01 -8.361061e-02 9.892166e-01 -8.414427e-02 -6.814271e-04 1.261472e-03 7.583946e-03 -1.493587e-03 9.957209e-04 5.872170e-03 -6.752496e-04 1.289103e-03 9.891975e-01 -8.388044e-02 9.929874e-04 5.872949e-03 7.608905e-03 -4.256401e-04
3.675000e+10 4.632289e-03 -1.475398e-03 1.767388e-03 5.413695e-03 9.890407e-01 -8.559460e-02 -6.176082e-04 1.572634e-03 1.767334e-03 5.411516e-03 4.803141e-03 -7.826718e-04 -6.122476e-04 1.607791e-03 9.889761e-01 -8.558993e-02 9.889978e-01 -8.613719e-02 -6.817468e-04 1.297548e-03 7.691681e-03 -1.577974e-03 1.005641e-03 6.009160e-03 -6.753273e-04 1.325848e-03 9.889800e-01 -8.586672e-02 1.002736e-03 6.010061e-03 7.717516e-03 -4.840858e-04
3.762500e+10 4.592871e-03 -1.546225e-03 1.814232e-03 5.533013e-03 9.888179e-01 -8.757340e-02 -6.160116e-04 1.614581e-03 1.814171e-03 5.530784e-03 4.771327e-03 -8.375732e-04 -6.105042e-04 1.650513e-03 9.887528e-01 -8.756811e-02 9.887763e-01 -8.812928e-02 -6.818216e-04 1.333792e-03 7.799871e-03 -1.663980e-03 1.015518e-03 6.146051e-03 -6.751543e-04 1.362761e-03 9.887599e-01 -8.785219e-02 1.012439e-03 6.147078e-03 7.826605e-03 -5.441539e-04
3.850000e+10 4.550588e-03 -1.617589e-03 1.861866e-03 5.652016e-03 9.885925e-01 -8.955120e-02 -6.141684e-04 1.656691e-03 1.861799e-03 5.649739e-03 4.736827e-03 -8.930574e-04 -6.085138e-04 1.693398e-03 9.885269e-01 -8.954528e-02 9.885521e-01 -9.012069e-02 -6.816495e-04 1.370195e-03 7.908502e-03 -1.751533e-03 1.025358e-03 6.282861e-03 -6.747287e-04 1.399832e-03 9.885371e-01 -8.983697e-02 1.022101e-03 6.284017e-03 7.936156e-03 -6.057721e-04
