#   Hz   S  RI   R   50
!
0.000000e+00 3.453373e-03 0.000000e+00 5.993711e-04 0.000000e+00 -9.948316e-01 0.000000e+00 1.470523e-04 0.000000e+00 6.005120e-04 0.000000e+00 3.474481e-03 0.000000e+00 1.470659e-04 0.000000e+00 -9.948031e-01 0.000000e+00 -9.948282e-01 0.000000e+00 1.480493e-04 0.000000e+00 3.404204e-03 0.000000e+00 6.106443e-04 0.000000e+00 1.483150e-04 0.000000e+00 -9.948013e-01 0.000000e+00 6.095813e-04 0.000000e+00 3.433216e-03 0.000000e+00
8.750000e+08 3.449147e-03 -9.640475e-04 6.007214e-04 1.962398e-04 -9.948253e-01 2.518443e-03 1.463956e-04 -1.434087e-04 6.018613e-04 1.961790e-04 3.470530e-03 -9.283370e-04 1.464214e-04 -1.435802e-04 -9.947967e-01 2.542307e-03 -9.948215e-01 2.522867e-03 1.474109e-04 -1.416461e-04 3.406039e-03 -5.281747e-04 6.111568e-04 2.018297e-04 1.476637e-04 -1.416030e-04 -9.947946e-01 2.545593e-03 6.100935e-04 2.016995e-04 3.435010e-03 -5.535217e-04
1.750000e+09 3.436469e-03 -1.928136e-03 6.047694e-04 3.924058e-04 -9.948062e-01 5.036397e-03 1.444267e-04 -2.867871e-04 6.059065e-04 3.922843e-04 3.458674e-03 -1.856723e-03 1.444891e-04 -2.871304e-04 -9.947774e-01 5.084123e-03 -9.948014e-01 5.045216e-03 1.454970e-04 -2.832612e-04 3.411538e-03 -1.056530e-03 6.126921e-04 4.036126e-04 1.457110e-04 -2.831747e-04 -9.947744e-01 5.090666e-03 6.116279e-04 4.033524e-04 3.440385e-03 -1.107224e-03
2.625000e+09 3.415328e-03 -2.892308e-03 6.115073e-04 5.884247e-04 -9.947745e-01 7.553377e-03 1.411495e-04 -4.301052e-04 6.126395e-04 5.882427e-04 3.438903e-03 -2.785205e-03 1.412728e-04 -4.306212e-04 -9.947453e-01 7.624963e-03 -9.947681e-01 7.566534e-03 1.423117e-04 -4.248148e-04 3.420684e-03 -1.585244e-03 6.152442e-04 6.053022e-04 1.424610e-04 -4.246841e-04 -9.947408e-01 7.634707e-03 6.141785e-04 6.049127e-04 3.449324e-03 -1.661286e-03
3.500000e+09 3.385710e-03 -3.856602e-03 6.209217e-04 7.842243e-04 -9.947302e-01 1.006891e-02 1.365701e-04 -5.733334e-04 6.220472e-04 7.839820e-04 3.411201e-03 -3.713832e-03 1.367787e-04 -5.740232e-04 -9.947005e-01 1.016435e-02 -9.947216e-01 1.008632e-02 1.378614e-04 -5.662767e-04 3.433445e-03 -2.114496e-03 6.188029e-04 8.068529e-04 1.379203e-04 -5.661006e-04 -9.946939e-01 1.017721e-02 6.177352e-04 8.063350e-04 3.461796e-03 -2.215884e-03
4.375000e+09 3.347594e-03 -4.821057e-03 6.329941e-04 9.797339e-04 -9.946736e-01 1.258253e-02 1.306974e-04 -7.164430e-04 6.341111e-04 9.794318e-04 3.375546e-03 -4.642648e-03 1.310156e-04 -7.173083e-04 -9.946431e-01 1.270181e-02 -9.946620e-01 1.260408e-02 1.321552e-04 -7.076178e-04 3.449780e-03 -2.644459e-03 6.233543e-04 1.008220e-03 1.320978e-04 -7.073948e-04 -9.946339e-01 1.271768e-02 6.222839e-04 1.007575e-03 3.477759e-03 -2.771194e-03
5.250000e+09 3.300952e-03 -5.785711e-03 6.477013e-04 1.174885e-03 -9.946047e-01 1.509378e-02 1.235423e-04 -8.594065e-04 6.488079e-04 1.174524e-03 3.331911e-03 -5.571699e-03 1.239943e-04 -8.604492e-04 -9.945734e-01 1.523691e-02 -9.945896e-01 1.511934e-02 1.252044e-04 -8.488098e-04 3.469636e-03 -3.175304e-03 6.288806e-04 1.209362e-03 1.250051e-04 -8.485381e-04 -9.945609e-01 1.525565e-02 6.278071e-04 1.208591e-03 3.497160e-03 -3.327387e-03
6.125000e+09 3.245752e-03 -6.750598e-03 6.650154e-04 1.369612e-03 -9.945238e-01 1.760225e-02 1.151179e-04 -1.002198e-03 6.661099e-04 1.369192e-03 3.280260e-03 -6.501024e-03 1.157280e-04 -1.003420e-03 -9.944915e-01 1.776921e-02 -9.945045e-01 1.763166e-02 1.170228e-04 -9.898262e-04 3.492946e-03 -3.707197e-03 6.353605e-04 1.410237e-03 1.166559e-04 -9.895034e-04 -9.944752e-01 1.779066e-02 6.342834e-04 1.409343e-03 3.519935e-03 -3.884627e-03
7.000000e+09 3.181956e-03 -7.715750e-03 6.849040e-04 1.563852e-03 -9.944311e-01 2.010752e-02 1.054394e-04 -1.144791e-03 6.859847e-04 1.563373e-03 3.220553e-03 -7.430664e-03 1.062319e-04 -1.146196e-03 -9.943977e-01 2.029831e-02 -9.944072e-01 2.014060e-02 1.076260e-04 -1.130642e-03 3.519637e-03 -4.240297e-03 6.427694e-04 1.610807e-03 1.070660e-04 -1.130265e-03 -9.943771e-01 2.032230e-02 6.416885e-04 1.609791e-03 3.546008e-03 -4.443075e-03
7.875000e+09 3.109521e-03 -8.681197e-03 7.073310e-04 1.757544e-03 -9.943270e-01 2.260923e-02 9.452388e-05 -1.287164e-03 7.083963e-04 1.757008e-03 3.152745e-03 -8.360654e-03 9.552277e-05 -1.288755e-03 -9.942923e-01 2.282382e-02 -9.942977e-01 2.264577e-02 9.703163e-05 -1.271233e-03 3.549623e-03 -4.774759e-03 6.510799e-04 1.811037e-03 9.625306e-05 -1.270800e-03 -9.942668e-01 2.285015e-02 6.499947e-04 1.809901e-03 3.575294e-03 -5.002885e-03
8.750000e+09 3.028397e-03 -9.646965e-03 7.322566e-04 1.950635e-03 -9.942117e-01 2.510701e-02 8.238984e-05 -1.429296e-03 7.333049e-04 1.950042e-03 3.076784e-03 -9.291026e-03 8.361924e-05 -1.431075e-03 -9.941756e-01 2.534541e-02 -9.941766e-01 2.514681e-02 8.525891e-05 -1.411579e-03 3.582811e-03 -5.310730e-03 6.602615e-04 2.010894e-03 8.423645e-05 -1.411086e-03 -9.941446e-01 2.537386e-02 6.591719e-04 2.009640e-03 3.607701e-03 -5.564205e-03
9.625000e+09 2.938532e-03 -1.061308e-02 7.596379e-04 2.143071e-03 -9.940856e-01 2.760056e-02 6.905731e-05 -1.571167e-03 7.606678e-04 2.142422e-03 2.992615e-03 -1.022181e-02 7.054123e-05 -1.573139e-03 -9.940478e-01 2.786274e-02 -9.940440e-01 2.764338e-02 7.232852e-05 -1.551661e-03 3.619097e-03 -5.848348e-03 6.702816e-04 2.210347e-03 7.103695e-05 -1.551104e-03 -9.940110e-01 2.789309e-02 6.691873e-04 2.208980e-03 3.643124e-03 -6.127172e-03
1.050000e+10 2.839866e-03 -1.157955e-02 7.894293e-04 2.334805e-03 -9.939489e-01 3.008958e-02 5.454747e-05 -1.712759e-03 7.904394e-04 2.334101e-03 2.900176e-03 -1.115302e-02 5.630985e-05 -1.714929e-03 -9.939095e-01 3.037554e-02 -9.939005e-01 3.013519e-02 5.826230e-05 -1.691461e-03 3.658371e-03 -6.387744e-03 6.811053e-04 2.409372e-03 5.667655e-05 -1.690837e-03 -9.938664e-01 3.040755e-02 6.800064e-04 2.407893e-03 3.681455e-03 -6.691919e-03
1.137500e+10 2.732337e-03 -1.254639e-02 8.215829e-04 2.525794e-03 -9.938022e-01 3.257383e-02 3.888244e-05 -1.854059e-03 8.225720e-04 2.525036e-03 2.799401e-03 -1.208469e-02 4.094715e-05 -1.856430e-03 -9.937608e-01 3.288355e-02 -9.937463e-01 3.262199e-02 4.308303e-05 -1.830965e-03 3.700515e-03 -6.929040e-03 6.926962e-04 2.607945e-03 4.117812e-05 -1.830269e-03 -9.937110e-01 3.291698e-02 6.915926e-04 2.606358e-03 3.722576e-03 -7.258567e-03
1.225000e+10 2.615877e-03 -1.351362e-02 8.560494e-04 2.716000e-03 -9.936457e-01 3.505310e-02 2.208499e-05 -1.995054e-03 8.570163e-04 2.715189e-03 2.690220e-03 -1.301682e-02 2.447585e-05 -1.997631e-03 -9.936023e-01 3.538657e-02 -9.935820e-01 3.510356e-02 2.681412e-05 -1.970160e-03 3.745407e-03 -7.472350e-03 7.050165e-04 2.806047e-03 2.456524e-05 -1.969388e-03 -9.935453e-01 3.542117e-02 7.039084e-04 2.804356e-03 3.766363e-03 -7.827230e-03
1.312500e+10 2.490416e-03 -1.448124e-02 8.927779e-04 2.905390e-03 -9.934798e-01 3.752721e-02 4.178357e-06 -2.135733e-03 8.937216e-04 2.904527e-03 2.572560e-03 -1.394943e-02 6.919080e-06 -2.138522e-03 -9.934343e-01 3.788441e-02 -9.934078e-01 3.757972e-02 9.479405e-06 -2.109038e-03 3.792916e-03 -8.017775e-03 7.180274e-04 3.003664e-03 6.861880e-06 -2.108184e-03 -9.933697e-01 3.791993e-02 7.169149e-04 3.001871e-03 3.812687e-03 -8.398010e-03
1.400000e+10 2.355880e-03 -1.544924e-02 9.317170e-04 3.093933e-03 -9.933051e-01 3.999602e-02 -1.481406e-05 -2.276090e-03 9.326366e-04 3.093019e-03 2.446343e-03 -1.488252e-02 -1.169982e-05 -2.279096e-03 -9.932572e-01 4.037694e-02 -9.932243e-01 4.005033e-02 -8.897173e-06 -2.247591e-03 3.842909e-03 -8.565412e-03 7.316896e-04 3.200784e-03 -1.190788e-05 -2.246651e-03 -9.931846e-01 4.041314e-02 7.305731e-04 3.198893e-03 3.861417e-03 -8.971003e-03
1.487500e+10 2.212190e-03 -1.641763e-02 9.728149e-04 3.281607e-03 -9.931217e-01 4.245943e-02 -3.486893e-05 -2.416117e-03 9.737095e-04 3.280643e-03 2.311488e-03 -1.581609e-02 -3.135758e-05 -2.419346e-03 -9.930715e-01 4.286405e-02 -9.930318e-01 4.251530e-02 -2.829179e-05 -2.385815e-03 3.895251e-03 -9.115342e-03 7.459636e-04 3.397399e-03 -3.172006e-05 -2.384782e-03 -9.929905e-01 4.290068e-02 7.448433e-04 3.395413e-03 3.912415e-03 -9.546292e-03
1.575000e+10 2.059266e-03 -1.738637e-02 1.016020e-03 3.468390e-03 -9.929303e-01 4.491738e-02 -5.596322e-05 -2.555813e-03 1.016889e-03 3.467378e-03 2.167911e-03 -1.675012e-02 -5.203124e-05 -2.559271e-03 -9.928774e-01 4.534569e-02 -9.928307e-01 4.497456e-02 -4.868100e-05 -2.523706e-03 3.949801e-03 -9.667640e-03 7.608098e-04 3.593505e-03 -5.255108e-05 -2.522575e-03 -9.927878e-01 4.538251e-02 7.596862e-04 3.591429e-03 3.965541e-03 -1.012395e-02
1.662500e+10 1.897025e-03 -1.835547e-02 1.061282e-03 3.654269e-03 -9.927311e-01 4.736983e-02 -7.807441e-05 -2.695176e-03 1.062125e-03 3.653209e-03 2.015528e-03 -1.768460e-02 -7.369837e-05 -2.698870e-03 -9.926755e-01 4.782181e-02 -9.926216e-01 4.742811e-02 -7.004199e-05 -2.661265e-03 4.006418e-03 -1.022237e-02 7.761895e-04 3.789101e-03 -7.437796e-05 -2.660030e-03 -9.925769e-01 4.785861e-02 7.750632e-04 3.786939e-03 4.020655e-03 -1.070405e-02
1.750000e+10 1.725383e-03 -1.932489e-02 1.108550e-03 3.839232e-03 -9.925245e-01 4.981679e-02 -1.011808e-04 -2.834207e-03 1.109366e-03 3.838125e-03 1.854250e-03 -1.861952e-02 -9.633727e-05 -2.838143e-03 -9.924660e-01 5.029244e-02 -9.924047e-01 4.987596e-02 -9.235277e-05 -2.798494e-03 4.064960e-03 -1.077959e-02 7.920645e-04 3.984192e-03 -9.717857e-05 -2.797149e-03 -9.923581e-01 5.032899e-02 7.909360e-04 3.981947e-03 4.077615e-03 -1.128663e-02
1.837500e+10 1.544252e-03 -2.029459e-02 1.157777e-03 4.023272e-03 -9.923109e-01 5.225831e-02 -1.252614e-04 -2.972910e-03 1.158566e-03 4.022120e-03 1.683987e-03 -1.955484e-02 -1.199272e-04 -2.977095e-03 -9.922495e-01 5.275760e-02 -9.921805e-01 5.231815e-02 -1.155924e-04 -2.935397e-03 4.125285e-03 -1.133934e-02 8.083980e-04 4.178783e-03 -1.209318e-04 -2.933935e-03 -9.921320e-01 5.279370e-02 8.072680e-04 4.176459e-03 4.136278e-03 -1.187175e-02
1.925000e+10 1.353544e-03 -2.126456e-02 1.208916e-03 4.206387e-03 -9.920908e-01 5.469444e-02 -1.502968e-04 -3.111290e-03 1.209677e-03 4.205190e-03 1.504649e-03 -2.049053e-02 -1.444486e-04 -3.115732e-03 -9.920262e-01 5.521737e-02 -9.919494e-01 5.475478e-02 -1.397412e-04 -3.071981e-03 4.187250e-03 -1.190165e-02 8.251544e-04 4.372885e-03 -1.456179e-04 -3.070395e-03 -9.918988e-01 5.525284e-02 8.240236e-04 4.370486e-03 4.196503e-03 -1.245945e-02
2.012500e+10 1.153171e-03 -2.223473e-02 1.261922e-03 4.388576e-03 -9.918643e-01 5.712529e-02 -1.762684e-04 -3.249353e-03 1.262656e-03 4.387336e-03 1.316145e-03 -2.142655e-02 -1.698830e-04 -3.254059e-03 -9.917965e-01 5.767185e-02 -9.917116e-01 5.718596e-02 -1.647810e-04 -3.208253e-03 4.250715e-03 -1.246656e-02 8.422999e-04 4.566509e-03 -1.712184e-04 -3.206536e-03 -9.916589e-01 5.770651e-02 8.411692e-04 4.564039e-03 4.258148e-03 -1.304974e-02
2.100000e+10 9.430427e-04 -2.320506e-02 1.316754e-03 4.569844e-03 -9.916320e-01 5.955099e-02 -2.031595e-04 -3.387107e-03 1.317461e-03 4.568562e-03 1.118383e-03 -2.236284e-02 -1.962137e-04 -3.392086e-03 -9.915607e-01 6.012116e-02 -9.914676e-01 5.961184e-02 -1.906949e-04 -3.344223e-03 4.315542e-03 -1.303408e-02 8.598026e-04 4.759672e-03 -1.977165e-04 -3.342367e-03 -9.914127e-01 6.015486e-02 8.586727e-04 4.757135e-03 4.321075e-03 -1.364264e-02
2.187500e+10 7.230699e-04 -2.417550e-02 1.373372e-03 4.750197e-03 -9.913940e-01 6.197169e-02 -2.309545e-04 -3.524563e-03 1.374052e-03 4.748874e-03 9.112711e-04 -2.329937e-02 -2.234253e-04 -3.529822e-03 -9.913192e-01 6.256545e-02 -9.912177e-01 6.203258e-02 -2.174680e-04 -3.479902e-03 4.381594e-03 -1.360422e-02 8.776329e-04 4.952391e-03 -2.250970e-04 -3.477900e-03 -9.911604e-01 6.259806e-02 8.765047e-04 4.949790e-03 4.385147e-03 -1.423817e-02
2.275000e+10 4.931634e-04 -2.514598e-02 1.431741e-03 4.929644e-03 -9.911507e-01 6.438755e-02 -2.596398e-04 -3.661732e-03 1.432393e-03 4.928281e-03 6.947188e-04 -2.423607e-02 -2.515042e-04 -3.667280e-03 -9.910721e-01 6.500491e-02 -9.909620e-01 6.444838e-02 -2.450870e-04 -3.615302e-03 4.448738e-03 -1.417698e-02 8.957632e-04 5.144686e-03 -2.533465e-04 -3.613146e-03 -9.909024e-01 6.503631e-02 8.946376e-04 5.142026e-03 4.450232e-03 -1.483632e-02
2.362500e+10 2.532349e-04 -2.611642e-02 1.491827e-03 5.108197e-03 -9.909023e-01 6.679877e-02 -2.892035e-04 -3.798624e-03 1.492452e-03 5.106795e-03 4.686358e-04 -2.517286e-02 -2.804385e-04 -3.804470e-03 -9.908199e-01 6.743971e-02 -9.907010e-01 6.685945e-02 -2.735406e-04 -3.750435e-03 4.516845e-03 -1.475235e-02 9.141686e-04 5.336581e-03 -2.824536e-04 -3.748117e-03 -9.906389e-01 6.746981e-02 9.130465e-04 5.333865e-03 4.516201e-03 -1.543710e-02
2.450000e+10 3.197245e-06 -2.708676e-02 1.553600e-03 5.285870e-03 -9.906490e-01 6.920557e-02 -3.196355e-04 -3.935254e-03 1.554199e-03 5.284430e-03 2.329336e-04 -2.610968e-02 -3.102182e-04 -3.941406e-03 -9.905627e-01 6.987008e-02 -9.904348e-01 6.926601e-02 -3.028194e-04 -3.885316e-03 4.585790e-03 -1.533033e-02 9.328266e-04 5.528097e-03 -3.124086e-04 -3.882828e-03 -9.903701e-01 6.989879e-02 9.317090e-04 5.525330e-03 4.582927e-03 -1.604048e-02
2.537500e+10 -2.570352e-04 -2.805691e-02 1.617033e-03 5.462677e-03 -9.903911e-01 7.160816e-02 -3.509276e-04 -4.071634e-03 1.617606e-03 5.461199e-03 -1.247489e-05 -2.704645e-02 -3.408350e-04 -4.078102e-03 -9.903007e-01 7.229623e-02 -9.901636e-01 7.166832e-02 -3.329157e-04 -4.019959e-03 4.655452e-03 -1.591088e-02 9.517175e-04 5.719262e-03 -3.432041e-04 -4.017292e-03 -9.900963e-01 7.232350e-02 9.506054e-04 5.716446e-03 4.650289e-03 -1.664645e-02
2.625000e+10 -5.275461e-04 -2.902679e-02 1.682103e-03 5.638634e-03 -9.901288e-01 7.400677e-02 -3.830733e-04 -4.207778e-03 1.682651e-03 5.637119e-03 -2.676743e-04 -2.798309e-02 -3.722827e-04 -4.214572e-03 -9.900341e-01 7.471840e-02 -9.898876e-01 7.406661e-02 -3.638243e-04 -4.154379e-03 4.725716e-03 -1.649399e-02 9.708243e-04 5.910100e-03 -3.748343e-04 -4.151524e-03 -9.898177e-01 7.474418e-02 9.697185e-04 5.907239e-03 4.718173e-03 -1.725498e-02
2.712500e+10 -8.084165e-04 -2.999629e-02 1.748790e-03 5.813757e-03 -9.898622e-01 7.640165e-02 -4.160683e-04 -4.343700e-03 1.749313e-03 5.812207e-03 -5.327469e-04 -2.891949e-02 -4.045567e-04 -4.350830e-03 -9.897632e-01 7.713683e-02 -9.896070e-01 7.646115e-02 -3.955414e-04 -4.288590e-03 4.796471e-03 -1.707962e-02 9.901327e-04 6.100640e-03 -4.072957e-04 -4.285538e-03 -9.895342e-01 7.716111e-02 9.890342e-04 6.097738e-03 4.786466e-03 -1.786603e-02
2.800000e+10 -1.099725e-03 -3.096532e-02 1.817076e-03 5.988064e-03 -9.895914e-01 7.879305e-02 -4.499097e-04 -4.479414e-03 1.817576e-03 5.986479e-03 -8.077717e-04 -2.985556e-02 -4.376545e-04 -4.486890e-03 -9.894879e-01 7.955177e-02 -9.893218e-01 7.885221e-02 -4.280655e-04 -4.422608e-03 4.867612e-03 -1.766773e-02 1.009631e-03 6.290909e-03 -4.405866e-04 -4.419350e-03 -9.892462e-01 7.957453e-02 1.008541e-03 6.287969e-03 4.855063e-03 -1.847958e-02
2.887500e+10 -1.401547e-03 -3.193377e-02 1.886950e-03 6.161572e-03 -9.893166e-01 8.118122e-02 -4.845970e-04 -4.614934e-03 1.887426e-03 6.159952e-03 -1.092825e-03 -3.079121e-02 -4.715753e-04 -4.622766e-03 -9.892084e-01 8.196347e-02 -9.890322e-01 8.124004e-02 -4.613969e-04 -4.556448e-03 4.939039e-03 -1.825829e-02 1.029311e-03 6.480936e-03 -4.747070e-04 -4.552974e-03 -9.889537e-01 8.198471e-02 1.028229e-03 6.477961e-03 4.923864e-03 -1.909558e-02
2.975000e+10 -1.713954e-03 -3.290154e-02 1.958399e-03 6.334297e-03 -9.890379e-01 8.356640e-02 -5.201309e-04 -4.750274e-03 1.958853e-03 6.332644e-03 -1.387979e-03 -3.172631e-02 -5.063201e-04 -4.758473e-03 -9.889249e-01 8.437219e-02 -9.887382e-01 8.362491e-02 -4.955377e-04 -4.690123e-03 5.010660e-03 -1.885125e-02 1.049165e-03 6.670748e-03 -5.096591e-04 -4.686424e-03 -9.886567e-01 8.439193e-02 1.048094e-03 6.667741e-03 4.992776e-03 -1.971398e-02
3.062500e+10 -2.037014e-03 -3.386850e-02 2.031417e-03 6.506257e-03 -9.887552e-01 8.594886e-02 -5.565142e-04 -4.885446e-03 2.031850e-03 6.504570e-03 -1.693301e-03 -3.266077e-02 -5.418916e-04 -4.894024e-03 -9.886372e-01 8.677816e-02 -9.884399e-01 8.600709e-02 -5.304917e-04 -4.823647e-03 5.082386e-03 -1.944656e-02 1.069191e-03 6.860373e-03 -5.454465e-04 -4.819712e-03 -9.883553e-01 8.679644e-02 1.068130e-03 6.857338e-03 5.061709e-03 -2.033474e-02
3.150000e+10 -2.370792e-03 -3.483453e-02 2.105999e-03 6.677466e-03 -9.884687e-01 8.832882e-02 -5.937512e-04 -5.020463e-03 2.106411e-03 6.675746e-03 -2.008857e-03 -3.359445e-02 -5.782941e-04 -5.029431e-03 -9.883456e-01 8.918165e-02 -9.881373e-01 8.838682e-02 -5.662644e-04 -4.957033e-03 5.154135e-03 -2.004416e-02 1.089387e-03 7.049840e-03 -5.820747e-04 -4.952852e-03 -9.880494e-01 8.919849e-02 1.088338e-03 7.046780e-03 5.130582e-03 -2.095781e-02
3.237500e+10 -2.715345e-03 -3.579951e-02 2.182143e-03 6.847939e-03 -9.881783e-01 9.070655e-02 -6.318475e-04 -5.155338e-03 2.182536e-03 6.846187e-03 -2.334705e-03 -3.452725e-02 -6.155335e-04 -5.164707e-03 -9.880500e-01 9.158287e-02 -9.878303e-01 9.076436e-02 -6.028627e-04 -5.090293e-03 5.225832e-03 -2.064401e-02 1.109754e-03 7.239175e-03 -6.195506e-04 -5.085856e-03 -9.877392e-01 9.159833e-02 1.108718e-03 7.236092e-03 5.199319e-03 -2.158312e-02
3.325000e+10 -3.070730e-03 -3.676331e-02 2.259850e-03 7.017690e-03 -9.878840e-01 9.308225e-02 -6.708105e-04 -5.290079e-03 2.260225e-03 7.015906e-03 -2.670901e-03 -3.545903e-02 -6.536170e-04 -5.299862e-03 -9.877503e-01 9.398208e-02 -9.875189e-01 9.313993e-02 -6.402952e-04 -5.223438e-03 5.297407e-03 -2.124604e-02 1.130297e-03 7.428404e-03 -6.578826e-04 -5.218735e-03 -9.874245e-01 9.399619e-02 1.129274e-03 7.425301e-03 5.267848e-03 -2.221063e-02
3.412500e+10 -3.436996e-03 -3.772579e-02 2.339123e-03 7.186730e-03 -9.875858e-01 9.545617e-02 -7.106486e-04 -5.424699e-03 2.339481e-03 7.184913e-03 -3.017494e-03 -3.638966e-02 -6.925531e-04 -5.434908e-03 -9.874466e-01 9.637949e-02 -9.872031e-01 9.551377e-02 -6.785716e-04 -5.356478e-03 5.368796e-03 -2.185021e-02 1.151020e-03 7.617553e-03 -6.970802e-04 -5.351497e-03 -9.871053e-01 9.639231e-02 1.150011e-03 7.614432e-03 5.336105e-03 -2.284027e-02
3.500000e+10 -3.814187e-03 -3.868682e-02 2.419966e-03 7.355069e-03 -9.872836e-01 9.782851e-02 -7.513715e-04 -5.559204e-03 2.420308e-03 7.353220e-03 -3.374528e-03 -3.731902e-02 -7.323515e-04 -5.569852e-03 -9.871387e-01 9.877531e-02 -9.868828e-01 9.788608e-02 -7.177026e-04 -5.489422e-03 5.439941e-03 -2.245644e-02 1.171932e-03 7.806644e-03 -7.371544e-04 -5.484152e-03 -9.867815e-01 9.878689e-02 1.170937e-03 7.803509e-03 5.404032e-03 -2.347199e-02
3.587500e+10 -4.202342e-03 -3.964626e-02 2.502388e-03 7.522715e-03 -9.869775e-01 1.001995e-01 -7.929899e-04 -5.693603e-03 2.502715e-03 7.520835e-03 -3.742044e-03 -3.824695e-02 -7.730232e-04 -5.704703e-03 -9.868267e-01 1.011697e-01 -9.865579e-01 1.002571e-01 -7.577003e-04 -5.622278e-03 5.510790e-03 -2.306469e-02 1.193042e-03 7.995702e-03 -7.781168e-04 -5.616706e-03 -9.864530e-01 1.011801e-01 1.192061e-03 7.992555e-03 5.471576e-03 -2.410573e-02
3.675000e+10 -4.601496e-03 -4.060396e-02 2.586396e-03 7.689674e-03 -9.866672e-01 1.025692e-01 -8.355154e-04 -5.827902e-03 2.586709e-03 7.687763e-03 -4.120073e-03 -3.917334e-02 -8.145796e-04 -5.839468e-03 -9.865104e-01 1.035629e-01 -9.862283e-01 1.026269e-01 -7.985772e-04 -5.755050e-03 5.581295e-03 -2.367489e-02 1.214360e-03 8.184747e-03 -8.199801e-04 -5.749166e-03 -9.861198e-01 1.035722e-01 1.213395e-03 8.181589e-03 5.538689e-03 -2.474142e-02
3.762500e+10 -5.011675e-03 -4.155979e-02 2.672000e-03 7.855951e-03 -9.863527e-01 1.049379e-01 -8.789604e-04 -5.962106e-03 2.672301e-03 7.854009e-03 -4.508645e-03 -4.009803e-02 -8.570333e-04 -5.974151e-03 -9.861898e-01 1.059551e-01 -9.858939e-01 1.049957e-01 -8.403469e-04 -5.887745e-03 5.651416e-03 -2.428698e-02 1.235900e-03 8.373798e-03 -8.627578e-04 -5.881536e-03 -9.857816e-01 1.059633e-01 1.234950e-03 8.370633e-03 5.605330e-03 -2.537900e-02
