#   Hz   S  RI   R   50
!
0.000000e+00 9.999966e-01 0.000000e+00 -1.885360e-06 0.000000e+00 5.994241e-07 0.000000e+00 -1.923776e-06 0.000000e+00 9.999970e-01 0.000000e+00 -6.536198e-07 0.000000e+00 5.144383e-07 0.000000e+00 -5.073573e-07 0.000000e+00 1.000004e+00 0.000000e+00
8.750000e+08 9.999965e-01 -2.813636e-04 -1.886833e-06 -9.180641e-06 5.958856e-07 -1.049139e-05 -1.925231e-06 -9.179696e-06 9.999970e-01 -2.813744e-04 -6.500300e-07 1.049671e-05 5.109212e-07 -1.048948e-05 -5.038403e-07 1.048926e-05 1.000004e+00 -2.827613e-04
1.750000e+09 9.999964e-01 -5.627238e-04 -1.891256e-06 -1.836113e-05 5.852700e-07 -2.098266e-05 -1.929603e-06 -1.835924e-05 9.999969e-01 -5.627454e-04 -6.392606e-07 2.099328e-05 5.003698e-07 -2.097884e-05 -4.932893e-07 2.097841e-05 1.000004e+00 -5.655194e-04
2.625000e+09 9.999963e-01 -8.440772e-04 -1.898647e-06 -2.754132e-05 5.675771e-07 -3.147369e-05 -1.936910e-06 -2.753849e-05 9.999967e-01 -8.441095e-04 -6.213115e-07 3.148961e-05 4.827838e-07 -3.146798e-05 -4.757039e-07 3.146732e-05 1.000004e+00 -8.482710e-04
3.500000e+09 9.999960e-01 -1.125420e-03 -1.909034e-06 -3.672106e-05 5.428066e-07 -4.196436e-05 -1.947180e-06 -3.671730e-05 9.999965e-01 -1.125463e-03 -5.961827e-07 4.198555e-05 4.581627e-07 -4.195677e-05 -4.510837e-07 4.195590e-05 1.000003e+00 -1.131013e-03
4.375000e+09 9.999957e-01 -1.406750e-03 -1.922459e-06 -4.590020e-05 5.109579e-07 -5.245456e-05 -1.960454e-06 -4.589552e-05 9.999961e-01 -1.406804e-03 -5.638743e-07 5.248099e-05 4.265058e-07 -5.244511e-05 -4.194280e-07 5.244402e-05 1.000003e+00 -1.413742e-03
5.250000e+09 9.999953e-01 -1.688063e-03 -1.938972e-06 -5.507861e-05 4.720306e-07 -6.294418e-05 -1.976784e-06 -5.507300e-05 9.999958e-01 -1.688127e-03 -5.243862e-07 6.297580e-05 3.878121e-07 -6.293289e-05 -3.807360e-07 6.293158e-05 1.000002e+00 -1.696456e-03
6.125000e+09 9.999948e-01 -1.969356e-03 -1.958636e-06 -6.425613e-05 4.260238e-07 -7.343310e-05 -1.996233e-06 -6.424963e-05 9.999953e-01 -1.969430e-03 -4.777185e-07 7.346986e-05 3.420805e-07 -7.342000e-05 -3.350067e-07 7.341847e-05 1.000002e+00 -1.979150e-03
7.000000e+09 9.999943e-01 -2.250626e-03 -1.981522e-06 -7.343266e-05 3.729369e-07 -8.392122e-05 -2.018873e-06 -7.342526e-05 9.999948e-01 -2.250710e-03 -4.238711e-07 8.396307e-05 2.893099e-07 -8.390634e-05 -2.822389e-07 8.390459e-05 1.000001e+00 -2.261823e-03
7.875000e+09 9.999937e-01 -2.531870e-03 -2.007713e-06 -8.260804e-05 3.127689e-07 -9.440843e-05 -2.044787e-06 -8.259976e-05 9.999941e-01 -2.531964e-03 -3.628442e-07 9.445531e-05 2.294989e-07 -9.439181e-05 -2.224314e-07 9.438984e-05 1.000001e+00 -2.544472e-03
8.750000e+09 9.999930e-01 -2.813085e-03 -2.037300e-06 -9.178217e-05 2.455188e-07 -1.048946e-04 -2.074068e-06 -9.177303e-05 9.999935e-01 -2.813189e-03 -2.946378e-07 1.049465e-04 1.626459e-07 -1.048763e-04 -1.555826e-07 1.048741e-04 9.999999e-01 -2.827093e-03
9.625000e+09 9.999923e-01 -3.094268e-03 -2.070383e-06 -1.009549e-04 1.711857e-07 -1.153798e-04 -2.106817e-06 -1.009449e-04 9.999927e-01 -3.094382e-03 -2.192520e-07 1.154365e-04 8.874924e-08 -1.153598e-04 -8.169126e-08 1.153574e-04 9.999991e-01 -3.109684e-03
1.050000e+10 9.999915e-01 -3.375418e-03 -2.107070e-06 -1.101262e-04 8.976858e-08 -1.258637e-04 -2.143142e-06 -1.101154e-04 9.999919e-01 -3.375541e-03 -1.366871e-07 1.259252e-04 7.807285e-09 -1.258421e-04 -7.556527e-10 1.258395e-04 9.999981e-01 -3.392244e-03
1.137500e+10 9.999906e-01 -3.656531e-03 -2.147477e-06 -1.192959e-04 1.266324e-09 -1.363463e-04 -2.183161e-06 -1.192843e-04 9.999910e-01 -3.656663e-03 -4.694334e-08 1.364125e-04 -8.018177e-08 -1.363232e-04 8.722583e-08 1.363203e-04 9.999971e-01 -3.674769e-03
1.225000e+10 9.999896e-01 -3.937605e-03 -2.191726e-06 -1.284640e-04 -9.432208e-08 -1.468277e-04 -2.226997e-06 -1.284516e-04 9.999900e-01 -3.937746e-03 4.997894e-08 1.468984e-04 -1.752197e-07 -1.468030e-04 1.822548e-07 1.467999e-04 9.999960e-01 -3.957258e-03
1.312500e+10 9.999886e-01 -4.218639e-03 -2.239945e-06 -1.376303e-04 -1.969976e-07 -1.573076e-04 -2.274780e-06 -1.376171e-04 9.999890e-01 -4.218789e-03 1.540793e-07 1.573829e-04 -2.773085e-07 -1.572815e-04 2.843331e-07 1.572782e-04 9.999949e-01 -4.239708e-03
1.400000e+10 9.999875e-01 -4.499631e-03 -2.292269e-06 -1.467948e-04 -3.067613e-07 -1.677860e-04 -2.326644e-06 -1.467809e-04 9.999879e-01 -4.499788e-03 2.653572e-07 1.678657e-04 -3.864498e-07 -1.677585e-04 3.934622e-07 1.677550e-04 9.999936e-01 -4.522118e-03
1.487500e+10 9.999863e-01 -4.780578e-03 -2.348835e-06 -1.559574e-04 -4.236139e-07 -1.782629e-04 -2.382729e-06 -1.559428e-04 9.999867e-01 -4.780744e-03 3.838119e-07 1.783468e-04 -5.026456e-07 -1.782341e-04 5.096438e-07 1.782304e-04 9.999923e-01 -4.804487e-03
1.575000e+10 9.999850e-01 -5.061479e-03 -2.409785e-06 -1.651181e-04 -5.475563e-07 -1.887382e-04 -2.443179e-06 -1.651028e-04 9.999854e-01 -5.061653e-03 5.094427e-07 1.888263e-04 -6.258975e-07 -1.887082e-04 6.328795e-07 1.887042e-04 9.999909e-01 -5.086813e-03
1.662500e+10 9.999837e-01 -5.342334e-03 -2.475263e-06 -1.742768e-04 -6.785892e-07 -1.992119e-04 -2.508139e-06 -1.742608e-04 9.999841e-01 -5.342514e-03 6.422486e-07 1.993041e-04 -7.562072e-07 -1.991807e-04 7.631709e-07 1.991765e-04 9.999894e-01 -5.369094e-03
1.750000e+10 9.999823e-01 -5.623140e-03 -2.545418e-06 -1.834335e-04 -8.167130e-07 -2.096840e-04 -2.577759e-06 -1.834169e-04 9.999826e-01 -5.623328e-03 7.822284e-07 2.097800e-04 -8.935763e-07 -2.096516e-04 9.005191e-07 2.096472e-04 9.999878e-01 -5.651331e-03
1.837500e+10 9.999808e-01 -5.903898e-03 -2.620398e-06 -1.925882e-04 -9.619282e-07 -2.201543e-04 -2.652187e-06 -1.925710e-04 9.999811e-01 -5.904092e-03 9.293811e-07 2.202541e-04 -1.038006e-06 -2.201209e-04 1.044926e-06 2.201163e-04 9.999862e-01 -5.933521e-03
1.925000e+10 9.999792e-01 -6.184606e-03 -2.700352e-06 -2.017408e-04 -1.114235e-06 -2.306229e-04 -2.731577e-06 -2.017231e-04 9.999796e-01 -6.184806e-03 1.083705e-06 2.307264e-04 -1.189498e-06 -2.305886e-04 1.196391e-06 2.305837e-04 9.999844e-01 -6.215665e-03
2.012500e+10 9.999776e-01 -6.465264e-03 -2.785430e-06 -2.108914e-04 -1.273633e-06 -2.410899e-04 -2.816077e-06 -2.108731e-04 9.999779e-01 -6.465470e-03 1.245199e-06 2.411968e-04 -1.348054e-06 -2.410546e-04 1.354918e-06 2.410495e-04 9.999826e-01 -6.497762e-03
2.100000e+10 9.999758e-01 -6.745871e-03 -2.875781e-06 -2.200400e-04 -1.440123e-06 -2.515550e-04 -2.905840e-06 -2.200212e-04 9.999762e-01 -6.746083e-03 1.413860e-06 2.516654e-04 -1.513673e-06 -2.515190e-04 1.520505e-06 2.515136e-04 9.999807e-01 -6.779811e-03
2.187500e+10 9.999741e-01 -7.026428e-03 -2.971552e-06 -2.291866e-04 -1.613704e-06 -2.620185e-04 -3.001014e-06 -2.291673e-04 9.999744e-01 -7.026645e-03 1.589688e-06 2.621320e-04 -1.686357e-06 -2.619817e-04 1.693154e-06 2.619761e-04 9.999787e-01 -7.061812e-03
2.275000e+10 9.999722e-01 -7.306934e-03 -3.072891e-06 -2.383311e-04 -1.794375e-06 -2.724802e-04 -3.101746e-06 -2.383114e-04 9.999725e-01 -7.307156e-03 1.772679e-06 2.725968e-04 -1.866107e-06 -2.724427e-04 1.872864e-06 2.724369e-04 9.999767e-01 -7.343767e-03
2.362500e+10 9.999702e-01 -7.587389e-03 -3.179940e-06 -2.474737e-04 -1.982136e-06 -2.829402e-04 -3.208183e-06 -2.474535e-04 9.999705e-01 -7.587616e-03 1.962831e-06 2.830598e-04 -2.052923e-06 -2.829021e-04 2.059637e-06 2.828960e-04 9.999745e-01 -7.625674e-03
2.450000e+10 9.999682e-01 -7.867795e-03 -3.292841e-06 -2.566144e-04 -2.176985e-06 -2.933984e-04 -3.320466e-06 -2.565938e-04 9.999685e-01 -7.868025e-03 2.160142e-06 2.935209e-04 -2.246804e-06 -2.933598e-04 2.253472e-06 2.933536e-04 9.999723e-01 -7.907534e-03
2.537500e+10 9.999661e-01 -8.148151e-03 -3.411730e-06 -2.657532e-04 -2.378921e-06 -3.038550e-04 -3.438734e-06 -2.657323e-04 9.999664e-01 -8.148385e-03 2.364609e-06 3.039801e-04 -2.447751e-06 -3.038160e-04 2.454369e-06 3.038095e-04 9.999700e-01 -8.189347e-03
2.625000e+10 9.999639e-01 -8.428458e-03 -3.536743e-06 -2.748902e-04 -2.587942e-06 -3.143100e-04 -3.563123e-06 -2.748689e-04 9.999642e-01 -8.428696e-03 2.576229e-06 3.144376e-04 -2.655762e-06 -3.142705e-04 2.662326e-06 3.142638e-04 9.999676e-01 -8.471115e-03
2.712500e+10 9.999616e-01 -8.708717e-03 -3.668007e-06 -2.840254e-04 -2.804047e-06 -3.247633e-04 -3.693762e-06 -2.840038e-04 9.999619e-01 -8.708958e-03 2.794998e-06 3.248932e-04 -2.870838e-06 -3.247236e-04 2.877344e-06 3.247166e-04 9.999651e-01 -8.752838e-03
2.800000e+10 9.999593e-01 -8.988929e-03 -3.805649e-06 -2.931590e-04 -3.027233e-06 -3.352150e-04 -3.830779e-06 -2.931370e-04 9.999595e-01 -8.989172e-03 3.020913e-06 3.353472e-04 -3.092977e-06 -3.351751e-04 3.099420e-06 3.351679e-04 9.999626e-01 -9.034517e-03
2.887500e+10 9.999568e-01 -9.269095e-03 -3.949789e-06 -3.022909e-04 -3.257497e-06 -3.456652e-04 -3.974295e-06 -3.022687e-04 9.999571e-01 -9.269340e-03 3.253970e-06 3.457995e-04 -3.322178e-06 -3.456251e-04 3.328554e-06 3.456177e-04 9.999599e-01 -9.316153e-03
2.975000e+10 9.999543e-01 -9.549216e-03 -4.100541e-06 -3.114212e-04 -3.494837e-06 -3.561138e-04 -4.124426e-06 -3.113989e-04 9.999546e-01 -9.549463e-03 3.494166e-06 3.562501e-04 -3.558439e-06 -3.560737e-04 3.564743e-06 3.560660e-04 9.999572e-01 -9.597747e-03
3.062500e+10 9.999517e-01 -9.829293e-03 -4.258016e-06 -3.205502e-04 -3.739249e-06 -3.665610e-04 -4.281283e-06 -3.205276e-04 9.999520e-01 -9.829542e-03 3.741495e-06 3.666991e-04 -3.801758e-06 -3.665209e-04 3.807986e-06 3.665130e-04 9.999544e-01 -9.879300e-03
3.150000e+10 9.999490e-01 -1.010933e-02 -4.422316e-06 -3.296777e-04 -3.990731e-06 -3.770068e-04 -4.444970e-06 -3.296550e-04 9.999493e-01 -1.010958e-02 3.995955e-06 3.771465e-04 -4.052133e-06 -3.769667e-04 4.058281e-06 3.769586e-04 9.999515e-01 -1.016081e-02
3.237500e+10 9.999463e-01 -1.038932e-02 -4.593542e-06 -3.388040e-04 -4.249278e-06 -3.874513e-04 -4.615589e-06 -3.387811e-04 9.999465e-01 -1.038957e-02 4.257540e-06 3.875925e-04 -4.309562e-06 -3.874113e-04 4.315624e-06 3.874030e-04 9.999486e-01 -1.044229e-02
3.325000e+10 9.999435e-01 -1.066928e-02 -4.771786e-06 -3.479291e-04 -4.514888e-06 -3.978944e-04 -4.793232e-06 -3.479061e-04 9.999437e-01 -1.066953e-02 4.526245e-06 3.980371e-04 -4.574041e-06 -3.978546e-04 4.580013e-06 3.978461e-04 9.999455e-01 -1.072373e-02
3.412500e+10 9.999405e-01 -1.094919e-02 -4.957134e-06 -3.570532e-04 -4.787554e-06 -4.083364e-04 -4.977986e-06 -3.570300e-04 9.999407e-01 -1.094945e-02 4.802066e-06 4.084802e-04 -4.845568e-06 -4.082968e-04 4.851445e-06 4.082881e-04 9.999424e-01 -1.100513e-02
3.500000e+10 9.999375e-01 -1.122907e-02 -5.149667e-06 -3.661762e-04 -5.067274e-06 -4.187771e-04 -5.169935e-06 -3.661530e-04 9.999377e-01 -1.122933e-02 5.084997e-06 4.189221e-04 -5.124140e-06 -4.187379e-04 5.129917e-06 4.187289e-04 9.999392e-01 -1.128650e-02
3.587500e+10 9.999344e-01 -1.150892e-02 -5.349460e-06 -3.752984e-04 -5.354042e-06 -4.292168e-04 -5.369153e-06 -3.752751e-04 9.999346e-01 -1.150917e-02 5.375033e-06 4.293628e-04 -5.409752e-06 -4.291779e-04 5.415424e-06 4.291688e-04 9.999359e-01 -1.156784e-02
3.675000e+10 9.999313e-01 -1.178873e-02 -5.556583e-06 -3.844198e-04 -5.647853e-06 -4.396553e-04 -5.575710e-06 -3.843965e-04 9.999315e-01 -1.178898e-02 5.672169e-06 4.398022e-04 -5.702400e-06 -4.396169e-04 5.707963e-06 4.396076e-04 9.999325e-01 -1.184915e-02
3.762500e+10 9.999280e-01 -1.206852e-02 -5.771099e-06 -3.935406e-04 -5.948703e-06 -4.500930e-04 -5.789671e-06 -3.935173e-04 9.999282e-01 -1.206877e-02 5.976399e-06 4.502406e-04 -6.002082e-06 -4.500550e-04 6.007531e-06 4.500455e-04 9.999290e-01 -1.213043e-02
3.850000e+10 9.999247e-01 -1.234827e-02 -5.993064e-06 -4.026608e-04 -6.256585e-06 -4.605297e-04 -6.011092e-06 -4.026375e-04 9.999249e-01 -1.234852e-02 6.287718e-06 4.606779e-04 -6.308792e-06 -4.604923e-04 6.314121e-06 4.604825e-04 9.999255e-01 -1.241169e-02
3.937500e+10 9.999213e-01 -1.262800e-02 -6.222531e-06 -4.117805e-04 -6.571495e-06 -4.709655e-04 -6.240027e-06 -4.117572e-04 9.999214e-01 -1.262824e-02 6.606119e-06 4.711143e-04 -6.622526e-06 -4.709287e-04 6.627731e-06 4.709188e-04 9.999219e-01 -1.269292e-02
4.025000e+10 9.999178e-01 -1.290770e-02 -6.459545e-06 -4.209000e-04 -6.893426e-06 -4.814006e-04 -6.476522e-06 -4.208767e-04 9.999179e-01 -1.290794e-02 6.931596e-06 4.815497e-04 -6.943278e-06 -4.813645e-04 6.948355e-06 4.813543e-04 9.999182e-01 -1.297412e-02
4.112500e+10 9.999142e-01 -1.318737e-02 -6.704148e-06 -4.300192e-04 -7.222373e-06 -4.918350e-04 -6.720618e-06 -4.299960e-04 9.999143e-01 -1.318762e-02 7.264144e-06 4.919844e-04 -7.271045e-06 -4.917995e-04 7.275988e-06 4.917892e-04 9.999144e-01 -1.325531e-02
4.200000e+10 9.999105e-01 -1.346703e-02 -6.956374e-06 -4.391382e-04 -7.558328e-06 -5.022687e-04 -6.972350e-06 -4.391151e-04 9.999107e-01 -1.346727e-02 7.603755e-06 5.024183e-04 -7.605821e-06 -5.022340e-04 7.610625e-06 5.022235e-04 9.999106e-01 -1.353647e-02
4.287500e+10 9.999068e-01 -1.374666e-02 -7.216252e-06 -4.482573e-04 -7.901287e-06 -5.127019e-04 -7.231749e-06 -4.482342e-04 9.999069e-01 -1.374690e-02 7.950425e-06 5.128515e-04 -7.947600e-06 -5.126679e-04 7.952261e-06 5.126572e-04 9.999066e-01 -1.381762e-02
4.375000e+10 9.999029e-01 -1.402628e-02 -7.483809e-06 -4.573764e-04 -8.251242e-06 -5.231345e-04 -7.498839e-06 -4.573535e-04 9.999031e-01 -1.402652e-02 8.304145e-06 5.232841e-04 -8.296377e-06 -5.231014e-04 8.300891e-06 5.230905e-04 9.999026e-01 -1.409875e-02
4.462500e+10 9.998990e-01 -1.430588e-02 -7.759064e-06 -4.664957e-04 -8.608187e-06 -5.335667e-04 -7.773642e-06 -4.664729e-04 9.998991e-01 -1.430611e-02 8.664910e-06 5.337161e-04 -8.652147e-06 -5.335345e-04 8.656508e-06 5.335234e-04 9.998985e-01 -1.437986e-02
4.550000e+10 9.998950e-01 -1.458546e-02 -8.042032e-06 -4.756153e-04 -8.972116e-06 -5.439986e-04 -8.056173e-06 -4.755926e-04 9.998951e-01 -1.458570e-02 9.032714e-06 5.441477e-04 -9.014903e-06 -5.439672e-04 9.019107e-06 5.439559e-04 9.998943e-01 -1.466096e-02
4.637500e+10 9.998910e-01 -1.486504e-02 -8.332724e-06 -4.847353e-04 -9.343020e-06 -5.544301e-04 -8.346442e-06 -4.847128e-04 9.998911e-01 -1.486526e-02 9.407549e-06 5.545788e-04 -9.384640e-06 -5.543996e-04 9.388683e-06 5.543882e-04 9.998900e-01 -1.494206e-02
4.725000e+10 9.998868e-01 -1.514460e-02 -8.631147e-06 -4.938558e-04 -9.720894e-06 -5.648613e-04 -8.644457e-06 -4.938334e-04 9.998869e-01 -1.514482e-02 9.789409e-06 5.650097e-04 -9.761351e-06 -5.648319e-04 9.765229e-06 5.648203e-04 9.998857e-01 -1.522314e-02
4.812500e+10 9.998825e-01 -1.542415e-02 -8.937303e-06 -5.029768e-04 -1.010573e-05 -5.752924e-04 -8.950219e-06 -5.029546e-04 9.998826e-01 -1.542437e-02 1.017829e-05 5.754402e-04 -1.014503e-05 -5.752640e-04 1.014874e-05 5.752522e-04 9.998813e-01 -1.550421e-02
4.900000e+10 9.998782e-01 -1.570369e-02 -9.251190e-06 -5.120986e-04 -1.049752e-05 -5.857234e-04 -9.263728e-06 -5.120766e-04 9.998783e-01 -1.570391e-02 1.057418e-05 5.858705e-04 -1.053567e-05 -5.856959e-04 1.053921e-05 5.856840e-04 9.998768e-01 -1.578528e-02
4.987500e+10 9.998738e-01 -1.598323e-02 -9.572803e-06 -5.212211e-04 -1.089626e-05 -5.961543e-04 -9.584978e-06 -5.211992e-04 9.998739e-01 -1.598344e-02 1.097707e-05 5.963007e-04 -1.093327e-05 -5.961279e-04 1.093663e-05 5.961158e-04 9.998722e-01 -1.606634e-02
5.075000e+10 9.998693e-01 -1.626276e-02 -9.902134e-06 -5.303444e-04 -1.130194e-05 -6.065852e-04 -9.913960e-06 -5.303228e-04 9.998694e-01 -1.626297e-02 1.138697e-05 6.067308e-04 -1.133782e-05 -6.065598e-04 1.134100e-05 6.065476e-04 9.998675e-01 -1.634740e-02
5.162500e+10 9.998648e-01 -1.654229e-02 -1.023917e-05 -5.394687e-04 -1.171456e-05 -6.170161e-04 -1.025066e-05 -5.394473e-04 9.998648e-01 -1.654250e-02 1.180385e-05 6.171609e-04 -1.174931e-05 -6.169919e-04 1.175230e-05 6.169795e-04 9.998628e-01 -1.662846e-02
5.250000e+10 9.998601e-01 -1.682182e-02 -1.058390e-05 -5.485941e-04 -1.213410e-05 -6.274471e-04 -1.059507e-05 -5.485728e-04 9.998602e-01 -1.682202e-02 1.222772e-05 6.275910e-04 -1.216774e-05 -6.274240e-04 1.217054e-05 6.274115e-04 9.998580e-01 -1.690951e-02
5.337500e+10 9.998554e-01 -1.710134e-02 -1.093629e-05 -5.577205e-04 -1.256057e-05 -6.378783e-04 -1.094716e-05 -5.576994e-04 9.998554e-01 -1.710154e-02 1.265857e-05 6.380211e-04 -1.259310e-05 -6.378563e-04 1.259571e-05 6.378437e-04 9.998531e-01 -1.719057e-02
5.425000e+10 9.998505e-01 -1.738087e-02 -1.129634e-05 -5.668481e-04 -1.299394e-05 -6.483097e-04 -1.130692e-05 -5.668272e-04 9.998506e-01 -1.738107e-02 1.309639e-05 6.484514e-04 -1.302538e-05 -6.482889e-04 1.302780e-05 6.482761e-04 9.998481e-01 -1.747163e-02
5.512500e+10 9.998456e-01 -1.766040e-02 -1.166402e-05 -5.759769e-04 -1.343422e-05 -6.587413e-04 -1.167432e-05 -5.759563e-04 9.998457e-01 -1.766059e-02 1.354118e-05 6.588819e-04 -1.346458e-05 -6.587217e-04 1.346680e-05 6.587088e-04 9.998430e-01 -1.775269e-02
5.600000e+10 9.998407e-01 -1.793993e-02 -1.203930e-05 -5.851071e-04 -1.388140e-05 -6.691733e-04 -1.204934e-05 -5.850867e-04 9.998407e-01 -1.794012e-02 1.399293e-05 6.693127e-04 -1.391070e-05 -6.691548e-04 1.391271e-05 6.691418e-04 9.998379e-01 -1.803376e-02
5.687500e+10 9.998356e-01 -1.821947e-02 -1.242215e-05 -5.942386e-04 -1.433547e-05 -6.796055e-04 -1.243195e-05 -5.942184e-04 9.998356e-01 -1.821966e-02 1.445162e-05 6.797437e-04 -1.436372e-05 -6.795883e-04 1.436553e-05 6.795752e-04 9.998327e-01 -1.831483e-02
5.775000e+10 9.998305e-01 -1.849902e-02 -1.281255e-05 -6.033716e-04 -1.479643e-05 -6.900382e-04 -1.282211e-05 -6.033516e-04 9.998305e-01 -1.849920e-02 1.491727e-05 6.901750e-04 -1.482364e-05 -6.900221e-04 1.482524e-05 6.900090e-04 9.998274e-01 -1.859591e-02
5.862500e+10 9.998252e-01 -1.877857e-02 -1.321046e-05 -6.125061e-04 -1.526426e-05 -7.004713e-04 -1.321980e-05 -6.124864e-04 9.998253e-01 -1.877874e-02 1.538986e-05 7.006067e-04 -1.529045e-05 -7.004565e-04 1.529184e-05 7.004432e-04 9.998220e-01 -1.887699e-02
5.950000e+10 9.998199e-01 -1.905813e-02 -1.361585e-05 -6.216421e-04 -1.573897e-05 -7.109048e-04 -1.362498e-05 -6.216226e-04 9.998200e-01 -1.905830e-02 1.586938e-05 7.110388e-04 -1.576414e-05 -7.108912e-04 1.576533e-05 7.108779e-04 9.998166e-01 -1.915809e-02
6.037500e+10 9.998145e-01 -1.933770e-02 -1.402868e-05 -6.307798e-04 -1.622054e-05 -7.213389e-04 -1.403762e-05 -6.307605e-04 9.998146e-01 -1.933786e-02 1.635582e-05 7.214714e-04 -1.624472e-05 -7.213265e-04 1.624569e-05 7.213131e-04 9.998110e-01 -1.943919e-02
6.125000e+10 9.998091e-01 -1.961728e-02 -1.444892e-05 -6.399191e-04 -1.670897e-05 -7.317735e-04 -1.445768e-05 -6.399001e-04 9.998091e-01 -1.961744e-02 1.684920e-05 7.319045e-04 -1.673218e-05 -7.317624e-04 1.673293e-05 7.317489e-04 9.998054e-01 -1.972031e-02
6.212500e+10 9.998035e-01 -1.989687e-02 -1.487653e-05 -6.490602e-04 -1.720425e-05 -7.422087e-04 -1.488512e-05 -6.490414e-04 9.998036e-01 -1.989702e-02 1.734948e-05 7.423381e-04 -1.722650e-05 -7.421988e-04 1.722704e-05 7.421852e-04 9.997997e-01 -2.000144e-02
6.300000e+10 9.997979e-01 -2.017647e-02 -1.531148e-05 -6.582030e-04 -1.770637e-05 -7.526445e-04 -1.531990e-05 -6.581844e-04 9.997979e-01 -2.017662e-02 1.785669e-05 7.527722e-04 -1.772769e-05 -7.526358e-04 1.772801e-05 7.526221e-04 9.997940e-01 -2.028257e-02
6.387500e+10 9.997922e-01 -2.045608e-02 -1.575371e-05 -6.673476e-04 -1.821534e-05 -7.630809e-04 -1.576199e-05 -6.673292e-04 9.997922e-01 -2.045623e-02 1.837079e-05 7.632070e-04 -1.823573e-05 -7.630734e-04 1.823583e-05 7.630597e-04 9.997882e-01 -2.056373e-02
6.475000e+10 9.997864e-01 -2.073571e-02 -1.620320e-05 -6.764940e-04 -1.873114e-05 -7.735179e-04 -1.621135e-05 -6.764759e-04 9.997864e-01 -2.073585e-02 1.889180e-05 7.736423e-04 -1.875063e-05 -7.735118e-04 1.875051e-05 7.734980e-04 9.997822e-01 -2.084489e-02
6.562500e+10 9.997806e-01 -2.101535e-02 -1.665990e-05 -6.856423e-04 -1.925376e-05 -7.839557e-04 -1.666792e-05 -6.856244e-04 9.997806e-01 -2.101549e-02 1.941970e-05 7.840783e-04 -1.927238e-05 -7.839507e-04 1.927203e-05 7.839369e-04 9.997762e-01 -2.112607e-02
6.650000e+10 9.997746e-01 -2.129501e-02 -1.712377e-05 -6.947926e-04 -1.978321e-05 -7.943942e-04 -1.713168e-05 -6.947749e-04 9.997746e-01 -2.129514e-02 1.995450e-05 7.945150e-04 -1.980096e-05 -7.943904e-04 1.980039e-05 7.943766e-04 9.997702e-01 -2.140727e-02
