#   Hz   S  RI   R   50
!
0.000000e+00 -3.300996e-01 0.000000e+00 6.647177e-01 0.000000e+00 6.653174e-01 0.000000e+00 6.647179e-01 0.000000e+00 -3.300997e-01 0.000000e+00 6.653176e-01 0.000000e+00 6.653393e-01 0.000000e+00 6.653394e-01 0.000000e+00 -3.306875e-01 0.000000e+00
8.750000e+08 -3.300970e-01 1.025569e-03 6.647161e-01 -8.646988e-04 6.653164e-01 -7.032434e-04 6.647163e-01 -8.646431e-04 -3.300972e-01 1.026340e-03 6.653165e-01 -7.034854e-04 6.653382e-01 -7.050749e-04 6.653382e-01 -7.054626e-04 -3.306856e-01 8.628588e-04
1.750000e+09 -3.300895e-01 2.050922e-03 6.647111e-01 -1.729257e-03 6.653132e-01 -1.406404e-03 6.647114e-01 -1.729146e-03 -3.300897e-01 2.052464e-03 6.653134e-01 -1.406888e-03 6.653347e-01 -1.410042e-03 6.653347e-01 -1.410817e-03 -3.306801e-01 1.725572e-03
2.625000e+09 -3.300770e-01 3.075844e-03 6.647029e-01 -2.593535e-03 6.653080e-01 -2.109398e-03 6.647032e-01 -2.593369e-03 -3.300771e-01 3.078157e-03 6.653082e-01 -2.110124e-03 6.653289e-01 -2.114795e-03 6.653289e-01 -2.115957e-03 -3.306709e-01 2.587994e-03
3.500000e+09 -3.300595e-01 4.100125e-03 6.646915e-01 -3.457397e-03 6.653007e-01 -2.812146e-03 6.646917e-01 -3.457175e-03 -3.300596e-01 4.103208e-03 6.653009e-01 -2.813114e-03 6.653208e-01 -2.819228e-03 6.653208e-01 -2.820778e-03 -3.306580e-01 3.449982e-03
4.375000e+09 -3.300371e-01 5.123557e-03 6.646769e-01 -4.320707e-03 6.652914e-01 -3.514566e-03 6.646771e-01 -4.320430e-03 -3.300373e-01 5.127410e-03 6.652916e-01 -3.515776e-03 6.653105e-01 -3.523238e-03 6.653105e-01 -3.525175e-03 -3.306415e-01 4.311396e-03
5.250000e+09 -3.300099e-01 6.145941e-03 6.646591e-01 -5.183336e-03 6.652801e-01 -4.216582e-03 6.646593e-01 -5.183004e-03 -3.300100e-01 6.150563e-03 6.652802e-01 -4.218034e-03 6.652979e-01 -4.226728e-03 6.652979e-01 -4.229051e-03 -3.306214e-01 5.172100e-03
6.125000e+09 -3.299780e-01 7.167084e-03 6.646382e-01 -6.045161e-03 6.652667e-01 -4.918119e-03 6.646385e-01 -6.044774e-03 -3.299781e-01 7.172475e-03 6.652669e-01 -4.919812e-03 6.652832e-01 -4.929600e-03 6.652832e-01 -4.932310e-03 -3.305978e-01 6.031961e-03
7.000000e+09 -3.299415e-01 8.186804e-03 6.646143e-01 -6.906062e-03 6.652514e-01 -5.619103e-03 6.646146e-01 -6.905621e-03 -3.299415e-01 8.192963e-03 6.652516e-01 -5.621039e-03 6.652663e-01 -5.631767e-03 6.652663e-01 -5.634862e-03 -3.305708e-01 6.890852e-03
7.875000e+09 -3.299004e-01 9.204928e-03 6.645874e-01 -7.765929e-03 6.652342e-01 -6.319469e-03 6.645877e-01 -7.765434e-03 -3.299004e-01 9.211854e-03 6.652343e-01 -6.321646e-03 6.652474e-01 -6.333142e-03 6.652474e-01 -6.336623e-03 -3.305403e-01 7.748653e-03
8.750000e+09 -3.298549e-01 1.022130e-02 6.645577e-01 -8.624658e-03 6.652151e-01 -7.019149e-03 6.645580e-01 -8.624110e-03 -3.298549e-01 1.022899e-02 6.652152e-01 -7.021568e-03 6.652265e-01 -7.033647e-03 6.652264e-01 -7.037513e-03 -3.305066e-01 8.605249e-03
9.625000e+09 -3.298052e-01 1.123576e-02 6.645251e-01 -9.482154e-03 6.651942e-01 -7.718086e-03 6.645254e-01 -9.481553e-03 -3.298051e-01 1.124421e-02 6.651943e-01 -7.720746e-03 6.652036e-01 -7.733212e-03 6.652035e-01 -7.737461e-03 -3.304696e-01 9.460534e-03
1.050000e+10 -3.297514e-01 1.224818e-02 6.644899e-01 -1.033833e-02 6.651715e-01 -8.416223e-03 6.644902e-01 -1.033768e-02 -3.297513e-01 1.225740e-02 6.651716e-01 -8.419124e-03 6.651789e-01 -8.431769e-03 6.651788e-01 -8.436402e-03 -3.304295e-01 1.031441e-02
1.137500e+10 -3.296936e-01 1.325844e-02 6.644521e-01 -1.119311e-02 6.651471e-01 -9.113509e-03 6.644524e-01 -1.119241e-02 -3.296934e-01 1.326842e-02 6.651472e-01 -9.116652e-03 6.651523e-01 -9.129263e-03 6.651522e-01 -9.134278e-03 -3.303864e-01 1.116678e-02
1.225000e+10 -3.296320e-01 1.426643e-02 6.644118e-01 -1.204643e-02 6.651210e-01 -9.809900e-03 6.644121e-01 -1.204567e-02 -3.296318e-01 1.427717e-02 6.651211e-01 -9.813283e-03 6.651241e-01 -9.825643e-03 6.651240e-01 -9.831040e-03 -3.303403e-01 1.201757e-02
1.312500e+10 -3.295668e-01 1.527205e-02 6.643691e-01 -1.289823e-02 6.650933e-01 -1.050535e-02 6.643695e-01 -1.289742e-02 -3.295665e-01 1.528356e-02 6.650934e-01 -1.050898e-02 6.650943e-01 -1.052087e-02 6.650941e-01 -1.052665e-02 -3.302914e-01 1.286670e-02
1.400000e+10 -3.294981e-01 1.627525e-02 6.643242e-01 -1.374846e-02 6.650641e-01 -1.119984e-02 6.643245e-01 -1.374760e-02 -3.294978e-01 1.628751e-02 6.650642e-01 -1.120370e-02 6.650629e-01 -1.121490e-02 6.650627e-01 -1.122106e-02 -3.302398e-01 1.371412e-02
1.487500e+10 -3.294261e-01 1.727594e-02 6.642771e-01 -1.459709e-02 6.650334e-01 -1.189332e-02 6.642774e-01 -1.459618e-02 -3.294258e-01 1.728896e-02 6.650335e-01 -1.189742e-02 6.650300e-01 -1.190772e-02 6.650298e-01 -1.191426e-02 -3.301856e-01 1.455975e-02
1.575000e+10 -3.293510e-01 1.827408e-02 6.642279e-01 -1.544409e-02 6.650013e-01 -1.258578e-02 6.642283e-01 -1.544313e-02 -3.293507e-01 1.828786e-02 6.650013e-01 -1.259012e-02 6.649958e-01 -1.259930e-02 6.649956e-01 -1.260622e-02 -3.301288e-01 1.540357e-02
1.662500e+10 -3.292730e-01 1.926965e-02 6.641768e-01 -1.628944e-02 6.649678e-01 -1.327719e-02 6.641772e-01 -1.628843e-02 -3.292726e-01 1.928419e-02 6.649678e-01 -1.328178e-02 6.649603e-01 -1.328964e-02 6.649601e-01 -1.329694e-02 -3.300697e-01 1.624553e-02
1.750000e+10 -3.291922e-01 2.026263e-02 6.641238e-01 -1.713313e-02 6.649330e-01 -1.396755e-02 6.641242e-01 -1.713208e-02 -3.291917e-01 2.027792e-02 6.649330e-01 -1.397237e-02 6.649236e-01 -1.397874e-02 6.649233e-01 -1.398641e-02 -3.300083e-01 1.708560e-02
1.837500e+10 -3.291087e-01 2.125301e-02 6.640691e-01 -1.797517e-02 6.648969e-01 -1.465684e-02 6.640696e-01 -1.797407e-02 -3.291082e-01 2.126905e-02 6.648970e-01 -1.466190e-02 6.648858e-01 -1.466658e-02 6.648854e-01 -1.467463e-02 -3.299448e-01 1.792377e-02
1.925000e+10 -3.290229e-01 2.224080e-02 6.640128e-01 -1.881557e-02 6.648597e-01 -1.534506e-02 6.640133e-01 -1.881443e-02 -3.290222e-01 2.225759e-02 6.648598e-01 -1.535037e-02 6.648469e-01 -1.535320e-02 6.648465e-01 -1.536163e-02 -3.298792e-01 1.876002e-02
2.012500e+10 -3.289347e-01 2.322602e-02 6.639550e-01 -1.965435e-02 6.648214e-01 -1.603222e-02 6.639555e-01 -1.965316e-02 -3.289340e-01 2.324357e-02 6.648215e-01 -1.603776e-02 6.648070e-01 -1.603860e-02 6.648067e-01 -1.604740e-02 -3.298117e-01 1.959437e-02
2.100000e+10 -3.288443e-01 2.420872e-02 6.638957e-01 -2.049153e-02 6.647820e-01 -1.671831e-02 6.638962e-01 -2.049029e-02 -3.288436e-01 2.422701e-02 6.647821e-01 -1.672410e-02 6.647663e-01 -1.672281e-02 6.647659e-01 -1.673198e-02 -3.297423e-01 2.042680e-02
2.187500e+10 -3.287520e-01 2.518893e-02 6.638351e-01 -2.132715e-02 6.647417e-01 -1.740336e-02 6.638356e-01 -2.132587e-02 -3.287512e-01 2.520797e-02 6.647417e-01 -1.740939e-02 6.647247e-01 -1.740585e-02 6.647242e-01 -1.741540e-02 -3.296712e-01 2.125734e-02
2.275000e+10 -3.286578e-01 2.616672e-02 6.637732e-01 -2.216125e-02 6.647003e-01 -1.808737e-02 6.637738e-01 -2.215992e-02 -3.286569e-01 2.618650e-02 6.647003e-01 -1.809364e-02 6.646823e-01 -1.808777e-02 6.646819e-01 -1.809770e-02 -3.295984e-01 2.208601e-02
2.362500e+10 -3.285619e-01 2.714214e-02 6.637102e-01 -2.299387e-02 6.646581e-01 -1.877037e-02 6.637108e-01 -2.299250e-02 -3.285609e-01 2.716267e-02 6.646581e-01 -1.877687e-02 6.646393e-01 -1.876860e-02 6.646388e-01 -1.877890e-02 -3.295242e-01 2.291283e-02
2.450000e+10 -3.284643e-01 2.811527e-02 6.636460e-01 -2.382507e-02 6.646150e-01 -1.945237e-02 6.636466e-01 -2.382366e-02 -3.284633e-01 2.813655e-02 6.646150e-01 -1.945912e-02 6.645956e-01 -1.944838e-02 6.645950e-01 -1.945905e-02 -3.294484e-01 2.373784e-02
2.537500e+10 -3.283653e-01 2.908619e-02 6.635808e-01 -2.465490e-02 6.645711e-01 -2.013341e-02 6.635814e-01 -2.465345e-02 -3.283641e-01 2.910821e-02 6.645711e-01 -2.014039e-02 6.645512e-01 -2.012717e-02 6.645506e-01 -2.013821e-02 -3.293714e-01 2.456109e-02
2.625000e+10 -3.282648e-01 3.005499e-02 6.635146e-01 -2.548343e-02 6.645265e-01 -2.081351e-02 6.635153e-01 -2.548193e-02 -3.282636e-01 3.007776e-02 6.645264e-01 -2.082073e-02 6.645063e-01 -2.080500e-02 6.645057e-01 -2.081641e-02 -3.292930e-01 2.538261e-02
2.712500e+10 -3.281630e-01 3.102176e-02 6.634475e-01 -2.631071e-02 6.644811e-01 -2.149269e-02 6.634482e-01 -2.630917e-02 -3.281617e-01 3.104527e-02 6.644811e-01 -2.150015e-02 6.644609e-01 -2.148193e-02 6.644602e-01 -2.149371e-02 -3.292134e-01 2.620245e-02
2.800000e+10 -3.280599e-01 3.198660e-02 6.633795e-01 -2.713681e-02 6.644350e-01 -2.217100e-02 6.633802e-01 -2.713523e-02 -3.280585e-01 3.201084e-02 6.644350e-01 -2.217870e-02 6.644150e-01 -2.215801e-02 6.644142e-01 -2.217016e-02 -3.291327e-01 2.702067e-02
2.887500e+10 -3.279557e-01 3.294960e-02 6.633106e-01 -2.796180e-02 6.643883e-01 -2.284848e-02 6.633113e-01 -2.796018e-02 -3.279542e-01 3.297458e-02 6.643883e-01 -2.285642e-02 6.643686e-01 -2.283330e-02 6.643678e-01 -2.284582e-02 -3.290510e-01 2.783733e-02
2.975000e+10 -3.278503e-01 3.391086e-02 6.632409e-01 -2.878575e-02 6.643410e-01 -2.352514e-02 6.632417e-01 -2.878409e-02 -3.278488e-01 3.393658e-02 6.643409e-01 -2.353332e-02 6.643217e-01 -2.350785e-02 6.643209e-01 -2.352074e-02 -3.289682e-01 2.865248e-02
3.062500e+10 -3.277439e-01 3.487049e-02 6.631704e-01 -2.960873e-02 6.642930e-01 -2.420104e-02 6.631712e-01 -2.960703e-02 -3.277423e-01 3.489695e-02 6.642929e-01 -2.420946e-02 6.642745e-01 -2.418172e-02 6.642736e-01 -2.419498e-02 -3.288844e-01 2.946619e-02
3.150000e+10 -3.276364e-01 3.582858e-02 6.630992e-01 -3.043080e-02 6.642445e-01 -2.487621e-02 6.631000e-01 -3.042906e-02 -3.276347e-01 3.585578e-02 6.642444e-01 -2.488487e-02 6.642268e-01 -2.485496e-02 6.642259e-01 -2.486859e-02 -3.287998e-01 3.027852e-02
3.237500e+10 -3.275279e-01 3.678525e-02 6.630272e-01 -3.125203e-02 6.641954e-01 -2.555070e-02 6.630280e-01 -3.125025e-02 -3.275261e-01 3.681319e-02 6.641953e-01 -2.555960e-02 6.641786e-01 -2.552762e-02 6.641777e-01 -2.554162e-02 -3.287142e-01 3.108954e-02
3.325000e+10 -3.274185e-01 3.774059e-02 6.629544e-01 -3.207249e-02 6.641458e-01 -2.622453e-02 6.629553e-01 -3.207067e-02 -3.274166e-01 3.776926e-02 6.641457e-01 -2.623367e-02 6.641301e-01 -2.619976e-02 6.641291e-01 -2.621413e-02 -3.286278e-01 3.189930e-02
3.412500e+10 -3.273081e-01 3.869469e-02 6.628809e-01 -3.289224e-02 6.640956e-01 -2.689776e-02 6.628818e-01 -3.289038e-02 -3.273061e-01 3.872411e-02 6.640955e-01 -2.690713e-02 6.640812e-01 -2.687143e-02 6.640802e-01 -2.688617e-02 -3.285406e-01 3.270789e-02
3.500000e+10 -3.271967e-01 3.964766e-02 6.628066e-01 -3.371135e-02 6.640449e-01 -2.757041e-02 6.628075e-01 -3.370945e-02 -3.271946e-01 3.967781e-02 6.640448e-01 -2.758002e-02 6.640318e-01 -2.754268e-02 6.640307e-01 -2.755779e-02 -3.284526e-01 3.351535e-02
3.587500e+10 -3.270843e-01 4.059958e-02 6.627315e-01 -3.452987e-02 6.639937e-01 -2.824253e-02 6.627325e-01 -3.452794e-02 -3.270822e-01 4.063047e-02 6.639936e-01 -2.825238e-02 6.639820e-01 -2.821355e-02 6.639809e-01 -2.822903e-02 -3.283639e-01 3.432177e-02
3.675000e+10 -3.269710e-01 4.155055e-02 6.626557e-01 -3.534787e-02 6.639420e-01 -2.891415e-02 6.626567e-01 -3.534590e-02 -3.269687e-01 4.158218e-02 6.639418e-01 -2.892425e-02 6.639318e-01 -2.888409e-02 6.639306e-01 -2.889994e-02 -3.282743e-01 3.512719e-02
3.762500e+10 -3.268567e-01 4.250065e-02 6.625791e-01 -3.616539e-02 6.638897e-01 -2.958532e-02 6.625801e-01 -3.616338e-02 -3.268543e-01 4.253301e-02 6.638896e-01 -2.959566e-02 6.638811e-01 -2.955435e-02 6.638799e-01 -2.957057e-02 -3.281841e-01 3.593170e-02
3.850000e+10 -3.267413e-01 4.344995e-02 6.625017e-01 -3.698249e-02 6.638370e-01 -3.025607e-02 6.625027e-01 -3.698044e-02 -3.267389e-01 4.348304e-02 6.638368e-01 -3.026665e-02 6.638300e-01 -3.022435e-02 6.638287e-01 -3.024094e-02 -3.280930e-01 3.673534e-02
3.937500e+10 -3.266249e-01 4.439853e-02 6.624234e-01 -3.779921e-02 6.637837e-01 -3.092643e-02 6.624245e-01 -3.779712e-02 -3.266224e-01 4.443236e-02 6.637835e-01 -3.093725e-02 6.637783e-01 -3.089414e-02 6.637770e-01 -3.091110e-02 -3.280013e-01 3.753817e-02
4.025000e+10 -3.265074e-01 4.534646e-02 6.623442e-01 -3.861559e-02 6.637299e-01 -3.159643e-02 6.623454e-01 -3.861347e-02 -3.265048e-01 4.538103e-02 6.637297e-01 -3.160749e-02 6.637261e-01 -3.156374e-02 6.637247e-01 -3.158108e-02 -3.279087e-01 3.834026e-02
4.112500e+10 -3.263888e-01 4.629380e-02 6.622642e-01 -3.943168e-02 6.636756e-01 -3.226612e-02 6.622653e-01 -3.942952e-02 -3.263861e-01 4.632910e-02 6.636754e-01 -3.227741e-02 6.636734e-01 -3.223320e-02 6.636719e-01 -3.225090e-02 -3.278155e-01 3.914166e-02
4.200000e+10 -3.262691e-01 4.724061e-02 6.621832e-01 -4.024751e-02 6.636207e-01 -3.293550e-02 6.621844e-01 -4.024531e-02 -3.262662e-01 4.727664e-02 6.636205e-01 -3.294704e-02 6.636201e-01 -3.290253e-02 6.636186e-01 -3.292060e-02 -3.277214e-01 3.994242e-02
4.287500e+10 -3.261481e-01 4.818694e-02 6.621013e-01 -4.106310e-02 6.635653e-01 -3.360463e-02 6.621025e-01 -4.106086e-02 -3.261452e-01 4.822371e-02 6.635651e-01 -3.361641e-02 6.635662e-01 -3.357175e-02 6.635646e-01 -3.359020e-02 -3.276266e-01 4.074259e-02
4.375000e+10 -3.260259e-01 4.913283e-02 6.620184e-01 -4.187849e-02 6.635093e-01 -3.427351e-02 6.620196e-01 -4.187621e-02 -3.260229e-01 4.917033e-02 6.635091e-01 -3.428554e-02 6.635116e-01 -3.424089e-02 6.635100e-01 -3.425971e-02 -3.275310e-01 4.154221e-02
4.462500e+10 -3.259025e-01 5.007832e-02 6.619344e-01 -4.269369e-02 6.634527e-01 -3.494218e-02 6.619357e-01 -4.269138e-02 -3.258993e-01 5.011656e-02 6.634525e-01 -3.495445e-02 6.634564e-01 -3.490996e-02 6.634548e-01 -3.492915e-02 -3.274345e-01 4.234134e-02
4.550000e+10 -3.257776e-01 5.102345e-02 6.618494e-01 -4.350872e-02 6.633956e-01 -3.561066e-02 6.618508e-01 -4.350637e-02 -3.257743e-01 5.106243e-02 6.633953e-01 -3.562317e-02 6.634005e-01 -3.557898e-02 6.633988e-01 -3.559854e-02 -3.273372e-01 4.314000e-02
4.637500e+10 -3.256514e-01 5.196825e-02 6.617633e-01 -4.432361e-02 6.633378e-01 -3.627896e-02 6.617647e-01 -4.432122e-02 -3.256480e-01 5.200796e-02 6.633375e-01 -3.629171e-02 6.633439e-01 -3.624795e-02 6.633422e-01 -3.626788e-02 -3.272391e-01 4.393824e-02
4.725000e+10 -3.255238e-01 5.291273e-02 6.616761e-01 -4.513835e-02 6.632794e-01 -3.694711e-02 6.616775e-01 -4.513593e-02 -3.255202e-01 5.295318e-02 6.632791e-01 -3.696011e-02 6.632866e-01 -3.691688e-02 6.632848e-01 -3.693718e-02 -3.271400e-01 4.473608e-02
4.812500e+10 -3.253946e-01 5.385691e-02 6.615877e-01 -4.595296e-02 6.632203e-01 -3.761512e-02 6.615892e-01 -4.595050e-02 -3.253910e-01 5.389810e-02 6.632200e-01 -3.762836e-02 6.632285e-01 -3.758578e-02 6.632266e-01 -3.760645e-02 -3.270400e-01 4.553357e-02
4.900000e+10 -3.252640e-01 5.480081e-02 6.614981e-01 -4.676743e-02 6.631606e-01 -3.828301e-02 6.614996e-01 -4.676494e-02 -3.252602e-01 5.484273e-02 6.631603e-01 -3.829649e-02 6.631696e-01 -3.825464e-02 6.631676e-01 -3.827569e-02 -3.269391e-01 4.633072e-02
4.987500e+10 -3.251318e-01 5.574443e-02 6.614073e-01 -4.758178e-02 6.631002e-01 -3.895079e-02 6.614088e-01 -4.757924e-02 -3.251279e-01 5.578709e-02 6.630999e-01 -3.896451e-02 6.631099e-01 -3.892346e-02 6.631078e-01 -3.894488e-02 -3.268373e-01 4.712757e-02
5.075000e+10 -3.249979e-01 5.668778e-02 6.613152e-01 -4.839598e-02 6.630391e-01 -3.961846e-02 6.613168e-01 -4.839341e-02 -3.249939e-01 5.673117e-02 6.630387e-01 -3.963243e-02 6.630493e-01 -3.959225e-02 6.630472e-01 -3.961404e-02 -3.267344e-01 4.792412e-02
5.162500e+10 -3.248624e-01 5.763084e-02 6.612219e-01 -4.921005e-02 6.629773e-01 -4.028604e-02 6.612235e-01 -4.920744e-02 -3.248583e-01 5.767497e-02 6.629769e-01 -4.030025e-02 6.629879e-01 -4.026098e-02 6.629857e-01 -4.028315e-02 -3.266305e-01 4.872040e-02
5.250000e+10 -3.247252e-01 5.857363e-02 6.611272e-01 -5.002397e-02 6.629147e-01 -4.095353e-02 6.611289e-01 -5.002132e-02 -3.247209e-01 5.861849e-02 6.629144e-01 -4.096799e-02 6.629256e-01 -4.092967e-02 6.629233e-01 -4.095221e-02 -3.265255e-01 4.951643e-02
5.337500e+10 -3.245862e-01 5.951611e-02 6.610312e-01 -5.083772e-02 6.628515e-01 -4.162094e-02 6.610330e-01 -5.083504e-02 -3.245818e-01 5.956172e-02 6.628510e-01 -4.163564e-02 6.628624e-01 -4.159829e-02 6.628600e-01 -4.162120e-02 -3.264195e-01 5.031221e-02
5.425000e+10 -3.244455e-01 6.045829e-02 6.609339e-01 -5.165131e-02 6.627874e-01 -4.228827e-02 6.609357e-01 -5.164859e-02 -3.244410e-01 6.050463e-02 6.627870e-01 -4.230322e-02 6.627982e-01 -4.226683e-02 6.627958e-01 -4.229012e-02 -3.263123e-01 5.110776e-02
5.512500e+10 -3.243030e-01 6.140015e-02 6.608352e-01 -5.246470e-02 6.627225e-01 -4.295553e-02 6.608370e-01 -5.246194e-02 -3.242983e-01 6.144723e-02 6.627221e-01 -4.297072e-02 6.627332e-01 -4.293528e-02 6.627307e-01 -4.295895e-02 -3.262040e-01 5.190307e-02
5.600000e+10 -3.241586e-01 6.234166e-02 6.607350e-01 -5.327789e-02 6.626569e-01 -4.362271e-02 6.607369e-01 -5.327510e-02 -3.241538e-01 6.238948e-02 6.626564e-01 -4.363814e-02 6.626671e-01 -4.360364e-02 6.626646e-01 -4.362768e-02 -3.260946e-01 5.269816e-02
5.687500e+10 -3.240124e-01 6.328281e-02 6.606335e-01 -5.409085e-02 6.625904e-01 -4.428980e-02 6.606355e-01 -5.408803e-02 -3.240075e-01 6.333136e-02 6.625899e-01 -4.430548e-02 6.626002e-01 -4.427187e-02 6.625976e-01 -4.429629e-02 -3.259839e-01 5.349302e-02
5.775000e+10 -3.238643e-01 6.422358e-02 6.605306e-01 -5.490358e-02 6.625231e-01 -4.495682e-02 6.605326e-01 -5.490072e-02 -3.238593e-01 6.427286e-02 6.625226e-01 -4.497275e-02 6.625322e-01 -4.493997e-02 6.625295e-01 -4.496477e-02 -3.258721e-01 5.428766e-02
5.862500e+10 -3.237143e-01 6.516393e-02 6.604262e-01 -5.571604e-02 6.624550e-01 -4.562375e-02 6.604283e-01 -5.571314e-02 -3.237091e-01 6.521395e-02 6.624545e-01 -4.563992e-02 6.624633e-01 -4.560793e-02 6.624606e-01 -4.563310e-02 -3.257589e-01 5.508206e-02
5.950000e+10 -3.235624e-01 6.610385e-02 6.603204e-01 -5.652823e-02 6.623860e-01 -4.629059e-02 6.603225e-01 -5.652529e-02 -3.235571e-01 6.615460e-02 6.623855e-01 -4.630701e-02 6.623935e-01 -4.627572e-02 6.623906e-01 -4.630126e-02 -3.256446e-01 5.587623e-02
6.037500e+10 -3.234086e-01 6.704330e-02 6.602132e-01 -5.734011e-02 6.623162e-01 -4.695734e-02 6.602154e-01 -5.733714e-02 -3.234031e-01 6.709479e-02 6.623156e-01 -4.697400e-02 6.623226e-01 -4.694332e-02 6.623196e-01 -4.696924e-02 -3.255289e-01 5.667016e-02
6.125000e+10 -3.232529e-01 6.798226e-02 6.601045e-01 -5.815167e-02 6.622454e-01 -4.762398e-02 6.601067e-01 -5.814866e-02 -3.232472e-01 6.803449e-02 6.622449e-01 -4.764089e-02 6.622508e-01 -4.761073e-02 6.622477e-01 -4.763702e-02 -3.254120e-01 5.746384e-02
6.212500e+10 -3.230951e-01 6.892070e-02 6.599944e-01 -5.896288e-02 6.621738e-01 -4.829051e-02 6.599967e-01 -5.895984e-02 -3.230893e-01 6.897366e-02 6.621732e-01 -4.830767e-02 6.621779e-01 -4.827793e-02 6.621748e-01 -4.830459e-02 -3.252938e-01 5.825725e-02
6.300000e+10 -3.229355e-01 6.985860e-02 6.598828e-01 -5.977374e-02 6.621013e-01 -4.895692e-02 6.598852e-01 -5.977066e-02 -3.229295e-01 6.991229e-02 6.621007e-01 -4.897433e-02 6.621041e-01 -4.894489e-02 6.621009e-01 -4.897193e-02 -3.251742e-01 5.905040e-02
6.387500e+10 -3.227739e-01 7.079592e-02 6.597698e-01 -6.058421e-02 6.620280e-01 -4.962321e-02 6.597722e-01 -6.058110e-02 -3.227678e-01 7.085035e-02 6.620273e-01 -4.964087e-02 6.620294e-01 -4.961161e-02 6.620261e-01 -4.963903e-02 -3.250532e-01 5.984326e-02
6.475000e+10 -3.226104e-01 7.173265e-02 6.596554e-01 -6.139428e-02 6.619537e-01 -5.028936e-02 6.596579e-01 -6.139114e-02 -3.226041e-01 7.178781e-02 6.619530e-01 -5.030726e-02 6.619536e-01 -5.027806e-02 6.619503e-01 -5.030586e-02 -3.249309e-01 6.063582e-02
6.562500e+10 -3.224449e-01 7.266875e-02 6.595396e-01 -6.220394e-02 6.618785e-01 -5.095536e-02 6.595421e-01 -6.220076e-02 -3.224385e-01 7.272465e-02 6.618778e-01 -5.097351e-02 6.618770e-01 -5.094425e-02 6.618735e-01 -5.097242e-02 -3.248073e-01 6.142807e-02
6.650000e+10 -3.222775e-01 7.360419e-02 6.594223e-01 -6.301315e-02 6.618023e-01 -5.162120e-02 6.594249e-01 -6.300994e-02 -3.222709e-01 7.366083e-02 6.618016e-01 -5.163960e-02 6.617993e-01 -5.161014e-02 6.617957e-01 -5.163869e-02 -3.246823e-01 6.221999e-02
6.737500e+10 -3.221082e-01 7.453897e-02 6.593036e-01 -6.382191e-02 6.617253e-01 -5.228687e-02 6.593063e-01 -6.381867e-02 -3.221014e-01 7.459634e-02 6.617246e-01 -5.230553e-02 6.617207e-01 -5.227574e-02 6.617171e-01 -5.230466e-02 -3.245558e-01 6.301157e-02
