#   Hz   S  RI   R   50
!
0.000000e+00 -3.301067e-01 0.000000e+00 6.647242e-01 0.000000e+00 6.653174e-01 0.000000e+00 6.647244e-01 0.000000e+00 -3.301069e-01 0.000000e+00 6.653176e-01 0.000000e+00 6.653394e-01 0.000000e+00 6.653394e-01 0.000000e+00 -3.306875e-01 0.000000e+00
8.750000e+08 -3.301042e-01 1.026324e-03 6.647225e-01 -8.653752e-04 6.653164e-01 -7.032434e-04 6.647227e-01 -8.653192e-04 -3.301043e-01 1.027096e-03 6.653165e-01 -7.034854e-04 6.653382e-01 -7.051357e-04 6.653383e-01 -7.055236e-04 -3.306856e-01 8.628588e-04
1.750000e+09 -3.300965e-01 2.052423e-03 6.647175e-01 -1.730602e-03 6.653132e-01 -1.406404e-03 6.647177e-01 -1.730490e-03 -3.300967e-01 2.053967e-03 6.653134e-01 -1.406888e-03 6.653347e-01 -1.410162e-03 6.653348e-01 -1.410938e-03 -3.306801e-01 1.725572e-03
2.625000e+09 -3.300838e-01 3.078074e-03 6.647091e-01 -2.595532e-03 6.653080e-01 -2.109398e-03 6.647093e-01 -2.595365e-03 -3.300839e-01 3.080389e-03 6.653082e-01 -2.110124e-03 6.653289e-01 -2.114970e-03 6.653289e-01 -2.116134e-03 -3.306709e-01 2.587994e-03
3.500000e+09 -3.300660e-01 4.103055e-03 6.646974e-01 -3.460022e-03 6.653007e-01 -2.812146e-03 6.646976e-01 -3.459798e-03 -3.300662e-01 4.106141e-03 6.653009e-01 -2.813114e-03 6.653208e-01 -2.819454e-03 6.653208e-01 -2.821005e-03 -3.306580e-01 3.449982e-03
4.375000e+09 -3.300433e-01 5.127152e-03 6.646824e-01 -4.323929e-03 6.652914e-01 -3.514566e-03 6.646827e-01 -4.323650e-03 -3.300434e-01 5.131009e-03 6.652916e-01 -3.515776e-03 6.653104e-01 -3.523510e-03 6.653104e-01 -3.525448e-03 -3.306415e-01 4.311396e-03
5.250000e+09 -3.300157e-01 6.150157e-03 6.646643e-01 -5.187116e-03 6.652801e-01 -4.216582e-03 6.646645e-01 -5.186782e-03 -3.300158e-01 6.154784e-03 6.652802e-01 -4.218034e-03 6.652978e-01 -4.227036e-03 6.652978e-01 -4.229361e-03 -3.306214e-01 5.172100e-03
6.125000e+09 -3.299833e-01 7.171871e-03 6.646430e-01 -6.049454e-03 6.652667e-01 -4.918119e-03 6.646432e-01 -6.049065e-03 -3.299833e-01 7.177268e-03 6.652669e-01 -4.919812e-03 6.652830e-01 -4.929937e-03 6.652830e-01 -4.932648e-03 -3.305978e-01 6.031961e-03
7.000000e+09 -3.299462e-01 8.192105e-03 6.646186e-01 -6.910817e-03 6.652514e-01 -5.619103e-03 6.646188e-01 -6.910374e-03 -3.299462e-01 8.198269e-03 6.652516e-01 -5.621039e-03 6.652661e-01 -5.632121e-03 6.652661e-01 -5.635218e-03 -3.305708e-01 6.890852e-03
7.875000e+09 -3.299045e-01 9.210678e-03 6.645912e-01 -7.771090e-03 6.652342e-01 -6.319469e-03 6.645914e-01 -7.770593e-03 -3.299045e-01 9.217611e-03 6.652343e-01 -6.321646e-03 6.652471e-01 -6.333504e-03 6.652470e-01 -6.336986e-03 -3.305403e-01 7.748653e-03
8.750000e+09 -3.298584e-01 1.022743e-02 6.645608e-01 -8.630164e-03 6.652151e-01 -7.019149e-03 6.645611e-01 -8.629613e-03 -3.298584e-01 1.023513e-02 6.652152e-01 -7.021568e-03 6.652260e-01 -7.034005e-03 6.652260e-01 -7.037872e-03 -3.305066e-01 8.605249e-03
9.625000e+09 -3.298080e-01 1.124220e-02 6.645277e-01 -9.487941e-03 6.651942e-01 -7.718086e-03 6.645280e-01 -9.487337e-03 -3.298079e-01 1.125066e-02 6.651943e-01 -7.720746e-03 6.652031e-01 -7.733553e-03 6.652030e-01 -7.737805e-03 -3.304696e-01 9.460534e-03
1.050000e+10 -3.297535e-01 1.225485e-02 6.644919e-01 -1.034433e-02 6.651715e-01 -8.416223e-03 6.644922e-01 -1.034368e-02 -3.297534e-01 1.226408e-02 6.651716e-01 -8.419124e-03 6.651783e-01 -8.432083e-03 6.651782e-01 -8.436718e-03 -3.304295e-01 1.031441e-02
1.137500e+10 -3.296949e-01 1.326526e-02 6.644534e-01 -1.119926e-02 6.651471e-01 -9.113509e-03 6.644537e-01 -1.119855e-02 -3.296948e-01 1.327526e-02 6.651472e-01 -9.116652e-03 6.651517e-01 -9.129537e-03 6.651516e-01 -9.134554e-03 -3.303864e-01 1.116678e-02
1.225000e+10 -3.296326e-01 1.427333e-02 6.644124e-01 -1.205265e-02 6.651210e-01 -9.809900e-03 6.644128e-01 -1.205189e-02 -3.296325e-01 1.428408e-02 6.651211e-01 -9.813283e-03 6.651234e-01 -9.825865e-03 6.651233e-01 -9.831264e-03 -3.303403e-01 1.201757e-02
1.312500e+10 -3.295667e-01 1.527896e-02 6.643691e-01 -1.290445e-02 6.650933e-01 -1.050535e-02 6.643695e-01 -1.290364e-02 -3.295665e-01 1.529047e-02 6.650934e-01 -1.050898e-02 6.650935e-01 -1.052103e-02 6.650933e-01 -1.052681e-02 -3.302914e-01 1.286670e-02
1.400000e+10 -3.294973e-01 1.628207e-02 6.643235e-01 -1.375462e-02 6.650641e-01 -1.119984e-02 6.643239e-01 -1.375376e-02 -3.294970e-01 1.629434e-02 6.650642e-01 -1.120370e-02 6.650620e-01 -1.121499e-02 6.650619e-01 -1.122115e-02 -3.302398e-01 1.371412e-02
1.487500e+10 -3.294246e-01 1.728260e-02 6.642758e-01 -1.460312e-02 6.650334e-01 -1.189332e-02 6.642761e-01 -1.460220e-02 -3.294243e-01 1.729564e-02 6.650335e-01 -1.189742e-02 6.650291e-01 -1.190772e-02 6.650289e-01 -1.191426e-02 -3.301856e-01 1.455975e-02
1.575000e+10 -3.293488e-01 1.828052e-02 6.642260e-01 -1.544991e-02 6.650013e-01 -1.258578e-02 6.642264e-01 -1.544895e-02 -3.293485e-01 1.829431e-02 6.650013e-01 -1.259012e-02 6.649949e-01 -1.259921e-02 6.649947e-01 -1.260613e-02 -3.301288e-01 1.540357e-02
1.662500e+10 -3.292702e-01 1.927579e-02 6.641743e-01 -1.629500e-02 6.649678e-01 -1.327719e-02 6.641747e-01 -1.629399e-02 -3.292697e-01 1.929033e-02 6.649678e-01 -1.328178e-02 6.649594e-01 -1.328945e-02 6.649591e-01 -1.329675e-02 -3.300697e-01 1.624553e-02
1.750000e+10 -3.291887e-01 2.026840e-02 6.641208e-01 -1.713838e-02 6.649330e-01 -1.396755e-02 6.641212e-01 -1.713732e-02 -3.291882e-01 2.028370e-02 6.649330e-01 -1.397237e-02 6.649226e-01 -1.397844e-02 6.649223e-01 -1.398612e-02 -3.300083e-01 1.708560e-02
1.837500e+10 -3.291047e-01 2.125835e-02 6.640656e-01 -1.798005e-02 6.648969e-01 -1.465684e-02 6.640660e-01 -1.797894e-02 -3.291042e-01 2.127440e-02 6.648970e-01 -1.466190e-02 6.648848e-01 -1.466618e-02 6.648845e-01 -1.467423e-02 -3.299448e-01 1.792377e-02
1.925000e+10 -3.290183e-01 2.224566e-02 6.640088e-01 -1.882002e-02 6.648597e-01 -1.534506e-02 6.640093e-01 -1.881887e-02 -3.290177e-01 2.226246e-02 6.648598e-01 -1.535037e-02 6.648459e-01 -1.535268e-02 6.648456e-01 -1.536111e-02 -3.298792e-01 1.876002e-02
2.012500e+10 -3.289297e-01 2.323036e-02 6.639506e-01 -1.965833e-02 6.648214e-01 -1.603222e-02 6.639511e-01 -1.965714e-02 -3.289290e-01 2.324791e-02 6.648215e-01 -1.603776e-02 6.648061e-01 -1.603797e-02 6.648057e-01 -1.604677e-02 -3.298117e-01 1.959437e-02
2.100000e+10 -3.288390e-01 2.421249e-02 6.638910e-01 -2.049501e-02 6.647820e-01 -1.671831e-02 6.638915e-01 -2.049377e-02 -3.288382e-01 2.423079e-02 6.647821e-01 -1.672410e-02 6.647654e-01 -1.672206e-02 6.647649e-01 -1.673124e-02 -3.297423e-01 2.042680e-02
2.187500e+10 -3.287463e-01 2.519210e-02 6.638300e-01 -2.133009e-02 6.647417e-01 -1.740336e-02 6.638306e-01 -2.132881e-02 -3.287455e-01 2.521114e-02 6.647417e-01 -1.740939e-02 6.647238e-01 -1.740500e-02 6.647234e-01 -1.741455e-02 -3.296712e-01 2.125734e-02
2.275000e+10 -3.286519e-01 2.616925e-02 6.637679e-01 -2.216363e-02 6.647003e-01 -1.808737e-02 6.637685e-01 -2.216230e-02 -3.286510e-01 2.618905e-02 6.647003e-01 -1.809364e-02 6.646815e-01 -1.808681e-02 6.646811e-01 -1.809673e-02 -3.295984e-01 2.208601e-02
2.362500e+10 -3.285558e-01 2.714403e-02 6.637047e-01 -2.299567e-02 6.646581e-01 -1.877037e-02 6.637053e-01 -2.299430e-02 -3.285548e-01 2.716456e-02 6.646581e-01 -1.877687e-02 6.646386e-01 -1.876753e-02 6.646380e-01 -1.877783e-02 -3.295242e-01 2.291283e-02
2.450000e+10 -3.284581e-01 2.811650e-02 6.636404e-01 -2.382628e-02 6.646150e-01 -1.945237e-02 6.636410e-01 -2.382487e-02 -3.284570e-01 2.813778e-02 6.646150e-01 -1.945912e-02 6.645949e-01 -1.944722e-02 6.645944e-01 -1.945789e-02 -3.294484e-01 2.373784e-02
2.537500e+10 -3.283590e-01 2.908676e-02 6.635751e-01 -2.465552e-02 6.645711e-01 -2.013341e-02 6.635758e-01 -2.465407e-02 -3.283578e-01 2.910878e-02 6.645711e-01 -2.014039e-02 6.645507e-01 -2.012592e-02 6.645501e-01 -2.013696e-02 -3.293714e-01 2.456109e-02
2.625000e+10 -3.282585e-01 3.005490e-02 6.635090e-01 -2.548346e-02 6.645265e-01 -2.081351e-02 6.635096e-01 -2.548196e-02 -3.282573e-01 3.007767e-02 6.645264e-01 -2.082073e-02 6.645059e-01 -2.080367e-02 6.645053e-01 -2.081508e-02 -3.292930e-01 2.538261e-02
2.712500e+10 -3.281568e-01 3.102102e-02 6.634419e-01 -2.631015e-02 6.644811e-01 -2.149269e-02 6.634426e-01 -2.630862e-02 -3.281555e-01 3.104453e-02 6.644811e-01 -2.150015e-02 6.644606e-01 -2.148054e-02 6.644599e-01 -2.149232e-02 -3.292134e-01 2.620245e-02
2.800000e+10 -3.280539e-01 3.198523e-02 6.633740e-01 -2.713569e-02 6.644350e-01 -2.217100e-02 6.633747e-01 -2.713411e-02 -3.280525e-01 3.200947e-02 6.644350e-01 -2.217870e-02 6.644148e-01 -2.215657e-02 6.644141e-01 -2.216872e-02 -3.291327e-01 2.702067e-02
2.887500e+10 -3.279499e-01 3.294762e-02 6.633053e-01 -2.796014e-02 6.643883e-01 -2.284848e-02 6.633061e-01 -2.795852e-02 -3.279484e-01 3.297261e-02 6.643883e-01 -2.285642e-02 6.643685e-01 -2.283182e-02 6.643678e-01 -2.284434e-02 -3.290510e-01 2.783733e-02
2.975000e+10 -3.278448e-01 3.390831e-02 6.632359e-01 -2.878357e-02 6.643410e-01 -2.352514e-02 6.632366e-01 -2.878191e-02 -3.278432e-01 3.393404e-02 6.643409e-01 -2.353332e-02 6.643218e-01 -2.350635e-02 6.643210e-01 -2.351924e-02 -3.289682e-01 2.865248e-02
3.062500e+10 -3.277387e-01 3.486741e-02 6.631657e-01 -2.960606e-02 6.642930e-01 -2.420104e-02 6.631665e-01 -2.960436e-02 -3.277371e-01 3.489387e-02 6.642929e-01 -2.420946e-02 6.642747e-01 -2.418021e-02 6.642739e-01 -2.419347e-02 -3.288844e-01 2.946619e-02
3.150000e+10 -3.276316e-01 3.582501e-02 6.630948e-01 -3.042768e-02 6.642445e-01 -2.487621e-02 6.630956e-01 -3.042594e-02 -3.276299e-01 3.585221e-02 6.642444e-01 -2.488487e-02 6.642272e-01 -2.485345e-02 6.642263e-01 -2.486709e-02 -3.287998e-01 3.027852e-02
3.237500e+10 -3.275236e-01 3.678123e-02 6.630231e-01 -3.124850e-02 6.641954e-01 -2.555070e-02 6.630240e-01 -3.124673e-02 -3.275218e-01 3.680917e-02 6.641953e-01 -2.555960e-02 6.641792e-01 -2.552614e-02 6.641783e-01 -2.554014e-02 -3.287142e-01 3.108954e-02
3.325000e+10 -3.274146e-01 3.773618e-02 6.629508e-01 -3.206860e-02 6.641458e-01 -2.622453e-02 6.629517e-01 -3.206678e-02 -3.274127e-01 3.776485e-02 6.641457e-01 -2.623367e-02 6.641308e-01 -2.619832e-02 6.641298e-01 -2.621269e-02 -3.286278e-01 3.189930e-02
3.412500e+10 -3.273047e-01 3.868994e-02 6.628777e-01 -3.288804e-02 6.640956e-01 -2.689776e-02 6.628786e-01 -3.288618e-02 -3.273027e-01 3.871935e-02 6.640955e-01 -2.690713e-02 6.640820e-01 -2.687005e-02 6.640810e-01 -2.688479e-02 -3.285406e-01 3.270789e-02
3.500000e+10 -3.271938e-01 3.964263e-02 6.628039e-01 -3.370689e-02 6.640449e-01 -2.757041e-02 6.628048e-01 -3.370499e-02 -3.271918e-01 3.967277e-02 6.640448e-01 -2.758002e-02 6.640328e-01 -2.754137e-02 6.640318e-01 -2.755648e-02 -3.284526e-01 3.351535e-02
3.587500e+10 -3.270820e-01 4.059433e-02 6.627294e-01 -3.452520e-02 6.639937e-01 -2.824253e-02 6.627303e-01 -3.452326e-02 -3.270799e-01 4.062521e-02 6.639936e-01 -2.825238e-02 6.639832e-01 -2.821232e-02 6.639821e-01 -2.822780e-02 -3.283639e-01 3.432177e-02
3.675000e+10 -3.269693e-01 4.154514e-02 6.626540e-01 -3.534304e-02 6.639420e-01 -2.891415e-02 6.626550e-01 -3.534106e-02 -3.269670e-01 4.157675e-02 6.639418e-01 -2.892425e-02 6.639331e-01 -2.888297e-02 6.639319e-01 -2.889882e-02 -3.282743e-01 3.512719e-02
3.762500e+10 -3.268555e-01 4.249513e-02 6.625779e-01 -3.616045e-02 6.638897e-01 -2.958532e-02 6.625790e-01 -3.615845e-02 -3.268532e-01 4.252748e-02 6.638896e-01 -2.959566e-02 6.638825e-01 -2.955333e-02 6.638813e-01 -2.956955e-02 -3.281841e-01 3.593170e-02
3.850000e+10 -3.267408e-01 4.344439e-02 6.625010e-01 -3.697750e-02 6.638370e-01 -3.025607e-02 6.625021e-01 -3.697546e-02 -3.267383e-01 4.347748e-02 6.638368e-01 -3.026665e-02 6.638315e-01 -3.022346e-02 6.638302e-01 -3.024005e-02 -3.280930e-01 3.673534e-02
3.937500e+10 -3.266249e-01 4.439299e-02 6.624233e-01 -3.779423e-02 6.637837e-01 -3.092643e-02 6.624243e-01 -3.779214e-02 -3.266224e-01 4.442682e-02 6.637835e-01 -3.093725e-02 6.637799e-01 -3.089339e-02 6.637786e-01 -3.091035e-02 -3.280013e-01 3.753817e-02
4.025000e+10 -3.265080e-01 4.534100e-02 6.623446e-01 -3.861067e-02 6.637299e-01 -3.159643e-02 6.623457e-01 -3.860855e-02 -3.265054e-01 4.537556e-02 6.637297e-01 -3.160749e-02 6.637278e-01 -3.156315e-02 6.637264e-01 -3.158048e-02 -3.279087e-01 3.834026e-02
4.112500e+10 -3.263900e-01 4.628848e-02 6.622651e-01 -3.942687e-02 6.636756e-01 -3.226612e-02 6.622662e-01 -3.942471e-02 -3.263872e-01 4.632377e-02 6.636754e-01 -3.227741e-02 6.636751e-01 -3.223276e-02 6.636737e-01 -3.225046e-02 -3.278155e-01 3.914166e-02
4.200000e+10 -3.262707e-01 4.723548e-02 6.621846e-01 -4.024285e-02 6.636207e-01 -3.293550e-02 6.621858e-01 -4.024065e-02 -3.262679e-01 4.727151e-02 6.636205e-01 -3.294704e-02 6.636218e-01 -3.290225e-02 6.636204e-01 -3.292032e-02 -3.277214e-01 3.994242e-02
4.287500e+10 -3.261503e-01 4.818204e-02 6.621031e-01 -4.105865e-02 6.635653e-01 -3.360463e-02 6.621043e-01 -4.105641e-02 -3.261473e-01 4.821881e-02 6.635651e-01 -3.361641e-02 6.635680e-01 -3.357164e-02 6.635664e-01 -3.359009e-02 -3.276266e-01 4.074259e-02
4.375000e+10 -3.260286e-01 4.912822e-02 6.620206e-01 -4.187428e-02 6.635093e-01 -3.427351e-02 6.620219e-01 -4.187201e-02 -3.260255e-01 4.916573e-02 6.635091e-01 -3.428554e-02 6.635134e-01 -3.424096e-02 6.635118e-01 -3.425977e-02 -3.275310e-01 4.154221e-02
4.462500e+10 -3.259055e-01 5.007405e-02 6.619371e-01 -4.268977e-02 6.634527e-01 -3.494218e-02 6.619384e-01 -4.268746e-02 -3.259023e-01 5.011229e-02 6.634525e-01 -3.495445e-02 6.634582e-01 -3.491020e-02 6.634566e-01 -3.492939e-02 -3.274345e-01 4.234134e-02
4.550000e+10 -3.257811e-01 5.101955e-02 6.618524e-01 -4.350513e-02 6.633956e-01 -3.561066e-02 6.618538e-01 -4.350279e-02 -3.257778e-01 5.105853e-02 6.633953e-01 -3.562317e-02 6.634023e-01 -3.557939e-02 6.634006e-01 -3.559895e-02 -3.273372e-01 4.314000e-02
4.637500e+10 -3.256552e-01 5.196475e-02 6.617666e-01 -4.432037e-02 6.633378e-01 -3.627896e-02 6.617680e-01 -4.431799e-02 -3.256518e-01 5.200446e-02 6.633375e-01 -3.629171e-02 6.633457e-01 -3.624853e-02 6.633439e-01 -3.626846e-02 -3.272391e-01 4.393824e-02
4.725000e+10 -3.255279e-01 5.290967e-02 6.616797e-01 -4.513550e-02 6.632794e-01 -3.694711e-02 6.616811e-01 -4.513307e-02 -3.255243e-01 5.295012e-02 6.632791e-01 -3.696011e-02 6.632883e-01 -3.691763e-02 6.632865e-01 -3.693794e-02 -3.271400e-01 4.473608e-02
4.812500e+10 -3.253990e-01 5.385432e-02 6.615915e-01 -4.595051e-02 6.632203e-01 -3.761512e-02 6.615930e-01 -4.594805e-02 -3.253954e-01 5.389550e-02 6.632200e-01 -3.762836e-02 6.632301e-01 -3.758669e-02 6.632282e-01 -3.760737e-02 -3.270400e-01 4.553357e-02
4.900000e+10 -3.252685e-01 5.479869e-02 6.615021e-01 -4.676541e-02 6.631606e-01 -3.828301e-02 6.615036e-01 -4.676291e-02 -3.252648e-01 5.484061e-02 6.631603e-01 -3.829649e-02 6.631711e-01 -3.825571e-02 6.631692e-01 -3.827676e-02 -3.269391e-01 4.633072e-02
4.987500e+10 -3.251365e-01 5.574281e-02 6.614115e-01 -4.758019e-02 6.631002e-01 -3.895079e-02 6.614130e-01 -4.757765e-02 -3.251326e-01 5.578546e-02 6.630999e-01 -3.896451e-02 6.631113e-01 -3.892468e-02 6.631093e-01 -3.894610e-02 -3.268373e-01 4.712757e-02
5.075000e+10 -3.250027e-01 5.668665e-02 6.613195e-01 -4.839484e-02 6.630391e-01 -3.961846e-02 6.613211e-01 -4.839227e-02 -3.249987e-01 5.673005e-02 6.630387e-01 -3.963243e-02 6.630506e-01 -3.959360e-02 6.630485e-01 -3.961540e-02 -3.267344e-01 4.792412e-02
5.162500e+10 -3.248672e-01 5.763022e-02 6.612262e-01 -4.920936e-02 6.629773e-01 -4.028604e-02 6.612278e-01 -4.920675e-02 -3.248631e-01 5.767435e-02 6.629769e-01 -4.030025e-02 6.629891e-01 -4.026247e-02 6.629869e-01 -4.028464e-02 -3.266305e-01 4.872040e-02
5.250000e+10 -3.247300e-01 5.857351e-02 6.611316e-01 -5.002372e-02 6.629147e-01 -4.095353e-02 6.611332e-01 -5.002108e-02 -3.247258e-01 5.861837e-02 6.629144e-01 -4.096799e-02 6.629266e-01 -4.093126e-02 6.629244e-01 -4.095381e-02 -3.265255e-01 4.951643e-02
5.337500e+10 -3.245910e-01 5.951649e-02 6.610355e-01 -5.083792e-02 6.628515e-01 -4.162094e-02 6.610373e-01 -5.083524e-02 -3.245866e-01 5.956209e-02 6.628510e-01 -4.163564e-02 6.628633e-01 -4.159998e-02 6.628609e-01 -4.162290e-02 -3.264195e-01 5.031221e-02
5.425000e+10 -3.244502e-01 6.045915e-02 6.609381e-01 -5.165193e-02 6.627874e-01 -4.228827e-02 6.609399e-01 -5.164922e-02 -3.244457e-01 6.050549e-02 6.627870e-01 -4.230322e-02 6.627990e-01 -4.226861e-02 6.627966e-01 -4.229190e-02 -3.263123e-01 5.110776e-02
5.512500e+10 -3.243075e-01 6.140147e-02 6.608393e-01 -5.246574e-02 6.627225e-01 -4.295553e-02 6.608411e-01 -5.246299e-02 -3.243029e-01 6.144854e-02 6.627221e-01 -4.297072e-02 6.627337e-01 -4.293713e-02 6.627313e-01 -4.296080e-02 -3.262040e-01 5.190307e-02
5.600000e+10 -3.241630e-01 6.234342e-02 6.607390e-01 -5.327933e-02 6.626569e-01 -4.362271e-02 6.607409e-01 -5.327654e-02 -3.241582e-01 6.239124e-02 6.626564e-01 -4.363814e-02 6.626675e-01 -4.360553e-02 6.626650e-01 -4.362958e-02 -3.260946e-01 5.269816e-02
5.687500e+10 -3.240165e-01 6.328499e-02 6.606373e-01 -5.409268e-02 6.625904e-01 -4.428980e-02 6.606392e-01 -5.408985e-02 -3.240116e-01 6.333354e-02 6.625899e-01 -4.430548e-02 6.626004e-01 -4.427380e-02 6.625978e-01 -4.429822e-02 -3.259839e-01 5.349302e-02
5.775000e+10 -3.238682e-01 6.422614e-02 6.605341e-01 -5.490575e-02 6.625231e-01 -4.495682e-02 6.605361e-01 -5.490289e-02 -3.238631e-01 6.427542e-02 6.625226e-01 -4.497275e-02 6.625323e-01 -4.494192e-02 6.625296e-01 -4.496671e-02 -3.258721e-01 5.428766e-02
5.862500e+10 -3.237179e-01 6.516684e-02 6.604295e-01 -5.571854e-02 6.624550e-01 -4.562375e-02 6.604315e-01 -5.571564e-02 -3.237126e-01 6.521686e-02 6.624545e-01 -4.563992e-02 6.624632e-01 -4.560987e-02 6.624604e-01 -4.563504e-02 -3.257589e-01 5.508206e-02
5.950000e+10 -3.235656e-01 6.610707e-02 6.603234e-01 -5.653101e-02 6.623860e-01 -4.629059e-02 6.603255e-01 -5.652808e-02 -3.235603e-01 6.615783e-02 6.623855e-01 -4.630701e-02 6.623931e-01 -4.627764e-02 6.623903e-01 -4.630318e-02 -3.256446e-01 5.587623e-02
6.037500e+10 -3.234114e-01 6.704680e-02 6.602158e-01 -5.734315e-02 6.623162e-01 -4.695734e-02 6.602180e-01 -5.734018e-02 -3.234059e-01 6.709829e-02 6.623156e-01 -4.697400e-02 6.623221e-01 -4.694521e-02 6.623191e-01 -4.697113e-02 -3.255289e-01 5.667016e-02
6.125000e+10 -3.232553e-01 6.798599e-02 6.601068e-01 -5.815493e-02 6.622454e-01 -4.762398e-02 6.601090e-01 -5.815193e-02 -3.232496e-01 6.803822e-02 6.622449e-01 -4.764089e-02 6.622500e-01 -4.761256e-02 6.622470e-01 -4.763886e-02 -3.254120e-01 5.746384e-02
6.212500e+10 -3.230971e-01 6.892463e-02 6.599963e-01 -5.896633e-02 6.621738e-01 -4.829051e-02 6.599986e-01 -5.896329e-02 -3.230913e-01 6.897759e-02 6.621732e-01 -4.830767e-02 6.621771e-01 -4.827968e-02 6.621739e-01 -4.830635e-02 -3.252938e-01 5.825725e-02
6.300000e+10 -3.229371e-01 6.986267e-02 6.598844e-01 -5.977734e-02 6.621013e-01 -4.895692e-02 6.598867e-01 -5.977426e-02 -3.229311e-01 6.991638e-02 6.621007e-01 -4.897433e-02 6.621031e-01 -4.894656e-02 6.620999e-01 -4.897360e-02 -3.251742e-01 5.905040e-02
6.387500e+10 -3.227750e-01 7.080010e-02 6.597710e-01 -6.058791e-02 6.620280e-01 -4.962321e-02 6.597734e-01 -6.058480e-02 -3.227689e-01 7.085454e-02 6.620273e-01 -4.964087e-02 6.620282e-01 -4.961317e-02 6.620249e-01 -4.964059e-02 -3.250532e-01 5.984326e-02
6.475000e+10 -3.226111e-01 7.173689e-02 6.596562e-01 -6.139805e-02 6.619537e-01 -5.028936e-02 6.596586e-01 -6.139491e-02 -3.226048e-01 7.179206e-02 6.619530e-01 -5.030726e-02 6.619523e-01 -5.027951e-02 6.619489e-01 -5.030730e-02 -3.249309e-01 6.063582e-02
6.562500e+10 -3.224452e-01 7.267300e-02 6.595399e-01 -6.220773e-02 6.618785e-01 -5.095536e-02 6.595425e-01 -6.220455e-02 -3.224387e-01 7.272891e-02 6.618778e-01 -5.097351e-02 6.618755e-01 -5.094556e-02 6.618720e-01 -5.097373e-02 -3.248073e-01 6.142807e-02
6.650000e+10 -3.222773e-01 7.360842e-02 6.594223e-01 -6.301693e-02 6.618023e-01 -5.162120e-02 6.594249e-01 -6.301372e-02 -3.222707e-01 7.366506e-02 6.618016e-01 -5.163960e-02 6.617977e-01 -5.161131e-02 6.617942e-01 -5.163985e-02 -3.246823e-01 6.221999e-02
6.737500e+10 -3.221076e-01 7.454312e-02 6.593032e-01 -6.382565e-02 6.617253e-01 -5.228687e-02 6.593059e-01 -6.382240e-02 -3.221008e-01 7.460049e-02 6.617246e-01 -5.230553e-02 6.617191e-01 -5.227675e-02 6.617154e-01 -5.230567e-02 -3.245558e-01 6.301157e-02
