#   Hz   S  RI   R   50
!
0.000000e+00 3.971392e-03 0.000000e+00 9.949650e-01 0.000000e+00 9.959442e-01 0.000000e+00 4.915393e-03 0.000000e+00
8.750000e+08 4.065901e-03 1.134303e-03 9.949116e-01 -5.659901e-03 9.958234e-01 -6.010977e-03 4.950924e-03 8.159851e-04
1.750000e+09 4.339505e-03 2.214875e-03 9.947526e-01 -1.130745e-02 9.954729e-01 -1.195802e-02 5.056666e-03 1.622379e-03
2.625000e+09 4.764255e-03 3.195850e-03 9.944914e-01 -1.693076e-02 9.949263e-01 -1.778672e-02 5.230111e-03 2.409930e-03
3.500000e+09 5.299135e-03 4.045360e-03 9.941335e-01 -2.251887e-02 9.942328e-01 -2.345957e-02 5.467197e-03 3.170043e-03
4.375000e+09 5.896875e-03 4.748795e-03 9.936860e-01 -2.806214e-02 9.934490e-01 -2.895989e-02 5.762489e-03 3.895068e-03
5.250000e+09 6.511049e-03 5.308879e-03 9.931579e-01 -3.355259e-02 9.926303e-01 -3.429194e-02 6.109412e-03 4.578530e-03
6.125000e+09 7.102104e-03 5.743069e-03 9.925589e-01 -3.898408e-02 9.918237e-01 -3.947767e-02 6.500519e-03 5.215312e-03
7.000000e+09 7.641523e-03 6.079178e-03 9.918997e-01 -4.435253e-02 9.910623e-01 -4.455136e-02 6.927786e-03 5.801762e-03
7.875000e+09 8.113853e-03 6.350221e-03 9.911910e-01 -4.965592e-02 9.903636e-01 -4.955339e-02 7.382917e-03 6.335735e-03
8.750000e+09 8.516725e-03 6.589317e-03 9.904434e-01 -5.489422e-02 9.897290e-01 -5.452394e-02 7.857642e-03 6.816580e-03
9.625000e+09 8.859193e-03 6.825232e-03 9.896670e-01 -6.006934e-02 9.891459e-01 -5.949758e-02 8.343988e-03 7.245054e-03
1.050000e+10 9.158788e-03 7.078984e-03 9.888710e-01 -6.518482e-02 9.885917e-01 -6.449910e-02 8.834528e-03 7.623200e-03
1.137500e+10 9.437720e-03 7.361791e-03 9.880635e-01 -7.024566e-02 9.880384e-01 -6.954108e-02 9.322582e-03 7.954177e-03
1.225000e+10 9.718700e-03 7.674562e-03 9.872509e-01 -7.525797e-02 9.874574e-01 -7.462329e-02 9.802383e-03 8.242064e-03
1.312500e+10 1.002095e-02 8.008992e-03 9.864385e-01 -8.022864e-02 9.868250e-01 -7.973418e-02 1.026919e-02 8.491643e-03
1.400000e+10 1.035701e-02 8.350115e-03 9.856297e-01 -8.516505e-02 9.861261e-01 -8.485412e-02 1.071936e-02 8.708177e-03
1.487500e+10 1.073094e-02 8.679884e-03 9.848266e-01 -9.007468e-02 9.853563e-01 -8.995990e-02 1.115035e-02 8.897182e-03
1.575000e+10 1.113815e-02 8.981117e-03 9.840294e-01 -9.496485e-02 9.845219e-01 -9.502974e-02 1.156074e-02 9.064219e-03
1.662500e+10 1.156697e-02 9.241015e-03 9.832372e-01 -9.984242e-02 9.836382e-01 -1.000476e-01 1.195013e-02 9.214686e-03
1.750000e+10 1.200151e-02 9.453558e-03 9.824477e-01 -1.047135e-01 9.827255e-01 -1.050061e-01 1.231907e-02 9.353644e-03
1.837500e+10 1.242510e-02 9.620362e-03 9.816579e-01 -1.095834e-01 9.818048e-01 -1.099077e-01 1.266897e-02 9.485666e-03
1.925000e+10 1.282364e-02 9.749963e-03 9.808635e-01 -1.144563e-01 9.808937e-01 -1.147634e-01 1.300189e-02 9.614707e-03
2.012500e+10 1.318814e-02 9.855813e-03 9.800602e-01 -1.193353e-01 9.800032e-01 -1.195904e-01 1.332044e-02 9.744022e-03
2.100000e+10 1.351613e-02 9.953520e-03 9.792431e-01 -1.242221e-01 9.791359e-01 -1.244084e-01 1.362761e-02 9.876102e-03
2.187500e+10 1.381169e-02 1.005791e-02 9.784074e-01 -1.291175e-01 9.782860e-01 -1.292359e-01 1.392656e-02 1.001266e-02
2.275000e+10 1.408439e-02 1.018041e-02 9.775485e-01 -1.340211e-01 9.774409e-01 -1.340869e-01 1.422052e-02 1.015463e-02
2.362500e+10 1.434724e-02 1.032725e-02 9.766623e-01 -1.389315e-01 9.765838e-01 -1.389687e-01 1.451257e-02 1.030222e-02
2.450000e+10 1.461416e-02 1.049860e-02 9.757455e-01 -1.438465e-01 9.756967e-01 -1.438809e-01 1.480555e-02 1.045500e-02
2.537500e+10 1.489744e-02 1.068887e-02 9.747952e-01 -1.487633e-01 9.747641e-01 -1.488154e-01 1.510191e-02 1.061197e-02
2.625000e+10 1.520548e-02 1.088805e-02 9.738097e-01 -1.536787e-01 9.737756e-01 -1.537590e-01 1.540364e-02 1.077169e-02
2.712500e+10 1.554140e-02 1.108377e-02 9.727881e-01 -1.585892e-01 9.727276e-01 -1.586953e-01 1.571223e-02 1.093240e-02
2.800000e+10 1.590264e-02 1.126382e-02 9.717303e-01 -1.634914e-01 9.716238e-01 -1.636084e-01 1.602858e-02 1.109218e-02
2.887500e+10 1.628164e-02 1.141854e-02 9.706371e-01 -1.683820e-01 9.704744e-01 -1.684857e-01 1.635307e-02 1.124905e-02
2.975000e+10 1.666753e-02 1.154262e-02 9.695102e-01 -1.732584e-01 9.692938e-01 -1.733205e-01 1.668555e-02 1.140110e-02
3.062500e+10 1.704833e-02 1.163600e-02 9.683516e-01 -1.781182e-01 9.680977e-01 -1.781128e-01 1.702539e-02 1.154663e-02
3.150000e+10 1.741332e-02 1.170376e-02 9.671639e-01 -1.829598e-01 9.668998e-01 -1.828694e-01 1.737158e-02 1.168420e-02
3.237500e+10 1.775505e-02 1.175493e-02 9.659499e-01 -1.877823e-01 9.657100e-01 -1.876022e-01 1.772279e-02 1.181271e-02
3.325000e+10 1.807061e-02 1.180073e-02 9.647125e-01 -1.925855e-01 9.645316e-01 -1.923256e-01 1.807751e-02 1.193148e-02
3.412500e+10 1.836201e-02 1.185237e-02 9.634545e-01 -1.973700e-01 9.633621e-01 -1.970542e-01 1.843410e-02 1.204021e-02
3.500000e+10 1.863565e-02 1.191906e-02 9.621784e-01 -2.021368e-01 9.621928e-01 -2.017998e-01 1.879095e-02 1.213903e-02
3.587500e+10 1.890097e-02 1.200639e-02 9.608865e-01 -2.068876e-01 9.610113e-01 -2.065695e-01 1.914651e-02 1.222844e-02
3.675000e+10 1.916866e-02 1.211550e-02 9.595803e-01 -2.116246e-01 9.598035e-01 -2.113644e-01 1.949943e-02 1.230928e-02
3.762500e+10 1.944869e-02 1.224300e-02 9.582611e-01 -2.163502e-01 9.585565e-01 -2.161799e-01 1.984856e-02 1.238266e-02
3.850000e+10 1.974850e-02 1.238178e-02 9.569292e-01 -2.210669e-01 9.572605e-01 -2.210064e-01 2.019308e-02 1.244992e-02
3.937500e+10 2.007172e-02 1.252243e-02 9.555847e-01 -2.257773e-01 9.559108e-01 -2.258313e-01 2.053245e-02 1.251250e-02
4.025000e+10 2.041762e-02 1.265509e-02 9.542267e-01 -2.304837e-01 9.545084e-01 -2.306413e-01 2.086648e-02 1.257192e-02
4.112500e+10 2.078140e-02 1.277130e-02 9.528543e-01 -2.351884e-01 9.530599e-01 -2.354252e-01 2.119528e-02 1.262967e-02
4.200000e+10 2.115519e-02 1.286558e-02 9.514657e-01 -2.398932e-01 9.515756e-01 -2.401755e-01 2.151928e-02 1.268716e-02
4.287500e+10 2.152962e-02 1.293638e-02 9.500590e-01 -2.445993e-01 9.500680e-01 -2.448900e-01 2.183917e-02 1.274564e-02
4.375000e+10 2.189568e-02 1.298625e-02 9.486320e-01 -2.493077e-01 9.485491e-01 -2.495720e-01 2.215584e-02 1.280615e-02
4.462500e+10 2.224636e-02 1.302132e-02 9.471826e-01 -2.540187e-01 9.470283e-01 -2.542291e-01 2.247037e-02 1.286951e-02
4.550000e+10 2.257794e-02 1.304998e-02 9.457085e-01 -2.587322e-01 9.455108e-01 -2.588726e-01 2.278391e-02 1.293627e-02
4.637500e+10 2.289055e-02 1.308131e-02 9.442075e-01 -2.634476e-01 9.439966e-01 -2.635141e-01 2.309767e-02 1.300671e-02
4.725000e+10 2.318804e-02 1.312341e-02 9.426778e-01 -2.681636e-01 9.424808e-01 -2.681645e-01 2.341284e-02 1.308085e-02
4.812500e+10 2.347719e-02 1.318197e-02 9.411180e-01 -2.728790e-01 9.409546e-01 -2.728313e-01 2.373053e-02 1.315846e-02
4.900000e+10 2.376638e-02 1.325931e-02 9.395268e-01 -2.775919e-01 9.394070e-01 -2.775177e-01 2.405171e-02 1.323911e-02
4.987500e+10 2.406405e-02 1.335408e-02 9.379036e-01 -2.823006e-01 9.378269e-01 -2.822220e-01 2.437719e-02 1.332217e-02
5.075000e+10 2.437717e-02 1.346161e-02 9.362481e-01 -2.870030e-01 9.362049e-01 -2.869381e-01 2.470759e-02 1.340691e-02
5.162500e+10 2.471002e-02 1.357487e-02 9.345605e-01 -2.916973e-01 9.345351e-01 -2.916568e-01 2.504330e-02 1.349249e-02
5.250000e+10 2.506351e-02 1.368586e-02 9.328414e-01 -2.963818e-01 9.328161e-01 -2.963673e-01 2.538451e-02 1.357806e-02
5.337500e+10 2.543508e-02 1.378704e-02 9.310918e-01 -3.010548e-01 9.310510e-01 -3.010596e-01 2.573118e-02 1.366281e-02
5.425000e+10 2.581930e-02 1.387280e-02 9.293129e-01 -3.057153e-01 9.292468e-01 -3.057257e-01 2.608307e-02 1.374599e-02
5.512500e+10 2.620897e-02 1.394043e-02 9.275061e-01 -3.103622e-01 9.274129e-01 -3.103616e-01 2.643977e-02 1.382694e-02
5.600000e+10 2.659647e-02 1.399052e-02 9.256732e-01 -3.149951e-01 9.255595e-01 -3.149677e-01 2.680076e-02 1.390517e-02
5.687500e+10 2.697525e-02 1.402685e-02 9.238157e-01 -3.196139e-01 9.236954e-01 -3.195482e-01 2.716539e-02 1.398036e-02
5.775000e+10 2.734098e-02 1.405554e-02 9.219351e-01 -3.242188e-01 9.218267e-01 -3.241111e-01 2.753297e-02 1.405236e-02
5.862500e+10 2.769236e-02 1.408394e-02 9.200329e-01 -3.288106e-01 9.199558e-01 -3.286656e-01 2.790280e-02 1.412120e-02
5.950000e+10 2.803121e-02 1.411920e-02 9.181102e-01 -3.333901e-01 9.180807e-01 -3.332211e-01 2.827423e-02 1.418709e-02
6.037500e+10 2.836216e-02 1.416702e-02 9.161680e-01 -3.379586e-01 9.161958e-01 -3.377853e-01 2.864665e-02 1.425041e-02
6.125000e+10 2.869169e-02 1.423063e-02 9.142069e-01 -3.425172e-01 9.142930e-01 -3.423627e-01 2.901957e-02 1.431166e-02
6.212500e+10 2.902697e-02 1.431032e-02 9.122271e-01 -3.470676e-01 9.123631e-01 -3.469541e-01 2.939263e-02 1.437146e-02
6.300000e+10 2.937452e-02 1.440340e-02 9.102286e-01 -3.516111e-01 9.103974e-01 -3.515564e-01 2.976561e-02 1.443049e-02
6.387500e+10 2.973910e-02 1.450482e-02 9.082108e-01 -3.561491e-01 9.083895e-01 -3.561633e-01 3.013847e-02 1.448948e-02
6.475000e+10 3.012290e-02 1.460810e-02 9.061731e-01 -3.606827e-01 9.063362e-01 -3.607664e-01 3.051128e-02 1.454914e-02
6.562500e+10 3.052518e-02 1.470659e-02 9.041144e-01 -3.652130e-01 9.042378e-01 -3.653571e-01 3.088431e-02 1.461017e-02
6.650000e+10 3.094254e-02 1.479463e-02 9.020336e-01 -3.697408e-01 9.020984e-01 -3.699276e-01 3.125793e-02 1.467317e-02
6.737500e+10 3.136957e-02 1.486862e-02 8.999293e-01 -3.742665e-01 8.999248e-01 -3.744728e-01 3.163265e-02 1.473869e-02
6.825000e+10 3.179991e-02 1.492762e-02 8.978001e-01 -3.787903e-01 8.977250e-01 -3.789908e-01 3.200904e-02 1.480713e-02
6.912500e+10 3.222749e-02 1.497346e-02 8.956447e-01 -3.833120e-01 8.955071e-01 -3.834833e-01 3.238777e-02 1.487878e-02
7.000000e+10 3.264761e-02 1.501035e-02 8.934616e-01 -3.878311e-01 8.932775e-01 -3.879552e-01 3.276949e-02 1.495378e-02
7.087500e+10 3.305780e-02 1.504407e-02 8.912498e-01 -3.923471e-01 8.910399e-01 -3.924135e-01 3.315488e-02 1.503215e-02
7.175000e+10 3.345826e-02 1.508086e-02 8.890081e-01 -3.968588e-01 8.887948e-01 -3.968661e-01 3.354458e-02 1.511377e-02
7.262500e+10 3.385173e-02 1.512633e-02 8.867358e-01 -4.013652e-01 8.865393e-01 -4.013202e-01 3.393918e-02 1.519840e-02
7.350000e+10 3.424303e-02 1.518439e-02 8.844324e-01 -4.058651e-01 8.842676e-01 -4.057811e-01 3.433917e-02 1.528572e-02
7.437500e+10 3.463811e-02 1.525664e-02 8.820977e-01 -4.103571e-01 8.819726e-01 -4.102512e-01 3.474495e-02 1.537533e-02
7.525000e+10 3.504299e-02 1.534212e-02 8.797317e-01 -4.148400e-01 8.796467e-01 -4.147299e-01 3.515681e-02 1.546676e-02
7.612500e+10 3.546270e-02 1.543751e-02 8.773346e-01 -4.193125e-01 8.772832e-01 -4.192134e-01 3.557492e-02 1.555956e-02
7.700000e+10 3.590043e-02 1.553779e-02 8.749071e-01 -4.237736e-01 8.748779e-01 -4.236955e-01 3.599933e-02 1.565324e-02
7.787500e+10 3.635698e-02 1.563719e-02 8.724498e-01 -4.282224e-01 8.724292e-01 -4.281692e-01 3.643000e-02 1.574738e-02
7.875000e+10 3.683072e-02 1.573021e-02 8.699637e-01 -4.326581e-01 8.699388e-01 -4.326271e-01 3.686676e-02 1.584160e-02
7.962500e+10 3.731790e-02 1.581266e-02 8.674497e-01 -4.370803e-01 8.674108e-01 -4.370638e-01 3.730940e-02 1.593558e-02
8.050000e+10 3.781346e-02 1.588233e-02 8.649088e-01 -4.414888e-01 8.648516e-01 -4.414758e-01 3.775761e-02 1.602912e-02
8.137500e+10 3.831195e-02 1.593939e-02 8.623421e-01 -4.458837e-01 8.622679e-01 -4.458627e-01 3.821108e-02 1.612209e-02
8.225000e+10 3.880855e-02 1.598630e-02 8.597504e-01 -4.502651e-01 8.596661e-01 -4.502271e-01 3.866947e-02 1.621448e-02
8.312500e+10 3.929997e-02 1.602730e-02 8.571346e-01 -4.546336e-01 8.570507e-01 -4.545737e-01 3.913244e-02 1.630639e-02
8.400000e+10 3.978503e-02 1.606762e-02 8.544953e-01 -4.589898e-01 8.544237e-01 -4.589087e-01 3.959972e-02 1.639799e-02
8.487500e+10 4.026486e-02 1.611249e-02 8.518329e-01 -4.633345e-01 8.517845e-01 -4.632387e-01 4.007106e-02 1.648956e-02
8.575000e+10 4.074265e-02 1.616621e-02 8.491477e-01 -4.676686e-01 8.491296e-01 -4.675692e-01 4.054630e-02 1.658142e-02
8.662500e+10 4.122307e-02 1.623137e-02 8.464396e-01 -4.719930e-01 8.464535e-01 -4.719037e-01 4.102537e-02 1.667396e-02
8.750000e+10 4.171143e-02 1.630843e-02 8.437084e-01 -4.763084e-01 8.437500e-01 -4.762433e-01 4.150828e-02 1.676759e-02
8.837500e+10 4.221274e-02 1.639566e-02 8.409536e-01 -4.806158e-01 8.410129e-01 -4.805862e-01 4.199513e-02 1.686273e-02
8.925000e+10 4.273079e-02 1.648950e-02 8.381746e-01 -4.849157e-01 8.382371e-01 -4.849285e-01 4.248614e-02 1.695978e-02
9.012500e+10 4.326760e-02 1.658520e-02 8.353706e-01 -4.892087e-01 8.354198e-01 -4.892644e-01 4.298159e-02 1.705911e-02
9.100000e+10 4.382304e-02 1.667773e-02 8.325407e-01 -4.934951e-01 8.325608e-01 -4.935879e-01 4.348184e-02 1.716103e-02
9.187500e+10 4.439494e-02 1.676265e-02 8.296838e-01 -4.977750e-01 8.296623e-01 -4.978930e-01 4.398733e-02 1.726579e-02
9.275000e+10 4.497955e-02 1.683690e-02 8.267991e-01 -5.020484e-01 8.267286e-01 -5.021758e-01 4.449852e-02 1.737357e-02
9.362500e+10 4.557229e-02 1.689936e-02 8.238854e-01 -5.063150e-01 8.237652e-01 -5.064341e-01 4.501592e-02 1.748444e-02
9.450000e+10 4.616857e-02 1.695095e-02 8.209418e-01 -5.105741e-01 8.207778e-01 -5.106685e-01 4.554003e-02 1.759840e-02
9.537500e+10 4.676472e-02 1.699444e-02 8.179677e-01 -5.148253e-01 8.177713e-01 -5.148819e-01 4.607134e-02 1.771537e-02
9.625000e+10 4.735862e-02 1.703392e-02 8.149622e-01 -5.190676e-01 8.147488e-01 -5.190788e-01 4.661031e-02 1.783519e-02
9.712500e+10 4.795008e-02 1.707400e-02 8.119249e-01 -5.233002e-01 8.117113e-01 -5.232647e-01 4.715736e-02 1.795761e-02
9.800000e+10 4.854090e-02 1.711894e-02 8.088555e-01 -5.275220e-01 8.086571e-01 -5.274449e-01 4.771284e-02 1.808235e-02
9.887500e+10 4.913452e-02 1.717191e-02 8.057538e-01 -5.317322e-01 8.055826e-01 -5.316235e-01 4.827704e-02 1.820907e-02
9.975000e+10 4.973540e-02 1.723438e-02 8.026200e-01 -5.359296e-01 8.024828e-01 -5.358028e-01 4.885018e-02 1.833744e-02
1.006250e+11 5.034821e-02 1.730588e-02 7.994543e-01 -5.401134e-01 7.993522e-01 -5.399827e-01 4.943239e-02 1.846708e-02
1.015000e+11 5.097705e-02 1.738409e-02 7.962570e-01 -5.442828e-01 7.961857e-01 -5.441609e-01 5.002372e-02 1.859766e-02
1.023750e+11 5.162467e-02 1.746529e-02 7.930288e-01 -5.484371e-01 7.929796e-01 -5.483333e-01 5.062418e-02 1.872887e-02
1.032500e+11 5.229210e-02 1.754501e-02 7.897702e-01 -5.525757e-01 7.897322e-01 -5.524948e-01 5.123369e-02 1.886042e-02
1.041250e+11 5.297846e-02 1.761886e-02 7.864819e-01 -5.566984e-01 7.864442e-01 -5.566400e-01 5.185216e-02 1.899212e-02
1.050000e+11 5.368118e-02 1.768326e-02 7.831647e-01 -5.608049e-01 7.831180e-01 -5.607643e-01 5.247943e-02 1.912379e-02
1.058750e+11 5.439653e-02 1.773612e-02 7.798191e-01 -5.648953e-01 7.797578e-01 -5.648646e-01 5.311535e-02 1.925537e-02
1.067500e+11 5.512032e-02 1.777715e-02 7.764457e-01 -5.689697e-01 7.763686e-01 -5.689401e-01 5.375977e-02 1.938683e-02
1.076250e+11 5.584872e-02 1.780786e-02 7.730451e-01 -5.730284e-01 7.729551e-01 -5.729917e-01 5.441255e-02 1.951822e-02
1.085000e+11 5.657895e-02 1.783128e-02 7.696176e-01 -5.770719e-01 7.695210e-01 -5.770226e-01 5.507358e-02 1.964967e-02
1.093750e+11 5.730984e-02 1.785133e-02 7.661635e-01 -5.811006e-01 7.660684e-01 -5.810371e-01 5.574281e-02 1.978133e-02
1.102500e+11 5.804201e-02 1.787210e-02 7.626827e-01 -5.851150e-01 7.625972e-01 -5.850398e-01 5.642023e-02 1.991341e-02
1.111250e+11 5.877780e-02 1.789708e-02 7.591752e-01 -5.891158e-01 7.591053e-01 -5.890350e-01 5.710591e-02 2.004614e-02
1.120000e+11 5.952083e-02 1.792848e-02 7.556406e-01 -5.931034e-01 7.555891e-01 -5.930258e-01 5.779996e-02 2.017976e-02
1.128750e+11 6.027538e-02 1.796688e-02 7.520786e-01 -5.970782e-01 7.520438e-01 -5.970132e-01 5.850260e-02 2.031450e-02
1.137500e+11 6.104563e-02 1.801106e-02 7.484886e-01 -6.010407e-01 7.484646e-01 -6.009966e-01 5.921408e-02 2.045059e-02
1.146250e+11 6.183493e-02 1.805822e-02 7.448699e-01 -6.049911e-01 7.448475e-01 -6.049730e-01 5.993472e-02 2.058820e-02
1.155000e+11 6.264523e-02 1.810451e-02 7.412217e-01 -6.089293e-01 7.411899e-01 -6.089386e-01 6.066490e-02 2.072747e-02
1.163750e+11 6.347678e-02 1.814567e-02 7.375433e-01 -6.128554e-01 7.374908e-01 -6.128884e-01 6.140503e-02 2.086849e-02
1.172500e+11 6.432813e-02 1.817777e-02 7.338338e-01 -6.167692e-01 7.337515e-01 -6.168179e-01 6.215555e-02 2.101128e-02
1.181250e+11 6.519639e-02 1.819795e-02 7.300924e-01 -6.206701e-01 7.299748e-01 -6.207234e-01 6.291692e-02 2.115579e-02
1.190000e+11 6.607788e-02 1.820480e-02 7.263186e-01 -6.245577e-01 7.261647e-01 -6.246027e-01 6.368959e-02 2.130192e-02
1.198750e+11 6.696874e-02 1.819868e-02 7.225115e-01 -6.284313e-01 7.223257e-01 -6.284556e-01 6.447400e-02 2.144948e-02
1.207500e+11 6.786575e-02 1.818153e-02 7.186708e-01 -6.322902e-01 7.184615e-01 -6.322838e-01 6.527056e-02 2.159826e-02
1.216250e+11 6.876685e-02 1.815649e-02 7.147960e-01 -6.361334e-01 7.145751e-01 -6.360902e-01 6.607964e-02 2.174797e-02
1.225000e+11 6.967161e-02 1.812732e-02 7.108869e-01 -6.399601e-01 7.106675e-01 -6.398790e-01 6.690156e-02 2.189829e-02
1.233750e+11 7.058128e-02 1.809762e-02 7.069435e-01 -6.437693e-01 7.067380e-01 -6.436541e-01 6.773659e-02 2.204887e-02
1.242500e+11 7.149859e-02 1.807020e-02 7.029657e-01 -6.475603e-01 7.027842e-01 -6.474190e-01 6.858495e-02 2.219936e-02
1.251250e+11 7.242727e-02 1.804649e-02 6.989539e-01 -6.513322e-01 6.988023e-01 -6.511757e-01 6.944678e-02 2.234940e-02
1.260000e+11 7.337141e-02 1.802630e-02 6.949082e-01 -6.550843e-01 6.947880e-01 -6.549246e-01 7.032220e-02 2.249864e-02
1.268750e+11 7.433474e-02 1.800778e-02 6.908291e-01 -6.588158e-01 6.907370e-01 -6.586643e-01 7.121124e-02 2.264676e-02
1.277500e+11 7.531997e-02 1.798776e-02 6.867172e-01 -6.625264e-01 6.866462e-01 -6.623915e-01 7.211393e-02 2.279348e-02
1.286250e+11 7.632836e-02 1.796228e-02 6.825727e-01 -6.662157e-01 6.825136e-01 -6.661024e-01 7.303024e-02 2.293855e-02
1.295000e+11 7.735951e-02 1.792725e-02 6.783964e-01 -6.698833e-01 6.783391e-01 -6.697925e-01 7.396012e-02 2.308178e-02
1.303750e+11 7.841147e-02 1.787916e-02 6.741887e-01 -6.735292e-01 6.741244e-01 -6.734576e-01 7.490355e-02 2.322302e-02
1.312500e+11 7.948113e-02 1.781571e-02 6.699499e-01 -6.771534e-01 6.698725e-01 -6.770948e-01 7.586047e-02 2.336219e-02
1.321250e+11 8.056484e-02 1.773609e-02 6.656804e-01 -6.807561e-01 6.655871e-01 -6.807028e-01 7.683087e-02 2.349925e-02
1.330000e+11 8.165905e-02 1.764116e-02 6.613805e-01 -6.843374e-01 6.612722e-01 -6.842817e-01 7.781476e-02 2.363419e-02
1.338750e+11 8.276105e-02 1.753319e-02 6.570503e-01 -6.878976e-01 6.569311e-01 -6.878335e-01 7.881219e-02 2.376705e-02
1.347500e+11 8.386943e-02 1.741540e-02 6.526896e-01 -6.914369e-01 6.525658e-01 -6.913613e-01 7.982326e-02 2.389789e-02
1.356250e+11 8.498437e-02 1.729134e-02 6.482985e-01 -6.949558e-01 6.481767e-01 -6.948687e-01 8.084812e-02 2.402677e-02
1.365000e+11 8.610767e-02 1.716416e-02 6.438765e-01 -6.984542e-01 6.437626e-01 -6.983593e-01 8.188698e-02 2.415378e-02
1.373750e+11 8.724237e-02 1.703604e-02 6.394233e-01 -7.019326e-01 6.393207e-01 -7.018355e-01 8.294009e-02 2.427896e-02
1.382500e+11 8.839229e-02 1.690767e-02 6.349383e-01 -7.053909e-01 6.348474e-01 -7.052988e-01 8.400778e-02 2.440236e-02
1.391250e+11 8.956132e-02 1.677816e-02 6.304210e-01 -7.088292e-01 6.303386e-01 -7.087488e-01 8.509039e-02 2.452397e-02
1.400000e+11 9.075276e-02 1.664508e-02 6.258707e-01 -7.122473e-01 6.257907e-01 -7.121833e-01 8.618833e-02 2.464376e-02
1.408750e+11 9.196875e-02 1.650488e-02 6.212868e-01 -7.156449e-01 6.212011e-01 -7.155993e-01 8.730202e-02 2.476162e-02
1.417500e+11 9.320988e-02 1.635349e-02 6.166685e-01 -7.190216e-01 6.165687e-01 -7.189924e-01 8.843189e-02 2.487741e-02
1.426250e+11 9.447516e-02 1.618693e-02 6.120153e-01 -7.223769e-01 6.118938e-01 -7.223587e-01 8.957839e-02 2.499092e-02
1.435000e+11 9.576217e-02 1.600208e-02 6.073264e-01 -7.257101e-01 6.071787e-01 -7.256946e-01 9.074196e-02 2.510188e-02
1.443750e+11 9.706758e-02 1.579707e-02 6.026015e-01 -7.290204e-01 6.024263e-01 -7.289976e-01 9.192302e-02 2.520997e-02
1.452500e+11 9.838774e-02 1.557165e-02 5.978402e-01 -7.323070e-01 5.976403e-01 -7.322669e-01 9.312195e-02 2.531482e-02
